(1611284291.562086) can0 340#0000000000000000 R
(1611284291.591782) can0 2E2#0000000000000000 R
(1611284291.592757) can0 330#0000000200000000 R
(1611284291.593740) can0 313#8F00000000000000 R
(1611284291.594755) can0 315#00000007FF000000 R
(1611284291.601282) can0 2D4#0000000010100000 R
(1611284291.602230) can0 353#029C01011BB46780 R
(1611284291.632017) can0 128#00F1000000000000 R
(1611284291.641726) can0 2FC#0000000003000046 R
(1611284291.642701) can0 511#5502EE0000040400 R
(1611284291.652034) can0 330#0000000200000000 R
(1611284291.652950) can0 353#029C01011BB46780 R
(1611284291.662031) can0 340#0000000000000000 R
(1611284291.671250) can0 2E6#348A120000000000 R
(1611284291.672275) can0 2EC#321E341E32DA0000 R
(1611284291.673224) can0 2EF#348A348A33460100 R
(1611284291.674238) can0 2F2#0A12110E09494500 R
(1611284291.675268) can0 30F#0A0A0A0A0A060000 R
(1611284291.676284) can0 311#1F8A1F0A1F1F5331 R
(1611284291.683756) can0 360#0000000000000000 R
(1611284291.684762) can0 365#0000000000000000 R
(1611284291.701966) can0 353#029C01011BB46780 R
(1611284291.712022) can0 330#0000000200000000 R
(1611284291.731293) can0 555#5C02000000000000 R
(1611284291.732312) can0 128#00F1000000000000 R
(1611284291.741738) can0 2FC#0000000003000046 R
(1611284291.751953) can0 353#029C01011BB46780 R
(1611284291.752871) can0 6F6#1538997ABFB7FADF R
(1611284291.762069) can0 340#0000000000000000 R
(1611284291.772025) can0 330#0000000200000000 R
(1611284291.778253) can0 409#2480524440914921 R
(1611284291.801961) can0 353#029C01011BB46780 R
(1611284291.831896) can0 55C#0102000000000000 R
(1611284291.832923) can0 128#00F1000000000000 R
(1611284291.833880) can0 330#0000000200000000 R
(1611284291.841787) can0 2E2#0000000000000000 R
(1611284291.842791) can0 2FC#0000000003000046 R
(1611284291.843864) can0 307#0000008000000000 R
(1611284291.844877) can0 313#8F00000000000000 R
(1611284291.845862) can0 315#00000007FF000000 R
(1611284291.851324) can0 2D4#0000000010100000 R
(1611284291.852309) can0 353#029C01011BB46780 R
(1611284291.862099) can0 340#0000000000000000 R
(1611284291.871434) can0 2E6#348A120000000000 R
(1611284291.872463) can0 2EC#321E341E32DA0000 R
(1611284291.873437) can0 2EF#348A348A33460100 R
(1611284291.874428) can0 2F2#0A12110E09494500 R
(1611284291.875482) can0 30F#0A0A0A0A0A060000 R
(1611284291.876515) can0 311#1F8A1F0A1F1F5331 R
(1611284291.892081) can0 330#0000000200000000 R
(1611284291.902007) can0 353#029C01011BB46780 R
(1611284291.918475) can0 501#0C02EE0000000000 R
(1611284291.932059) can0 128#00F1000000000000 R
(1611284291.941768) can0 2FC#0000000003000046 R
(1611284291.952049) can0 330#0000000200000000 R
(1611284291.952967) can0 353#029C01011BB46780 R
(1611284291.962065) can0 340#0000000000000000 R
(1611284291.973007) can0 2F4#3000FFFFFFFC0000 R
(1611284291.974040) can0 2F9#0000000000000000 R
(1611284291.975016) can0 309#547269706C65204D R
(1611284291.976033) can0 30B#583A1073B203F858 R
(1611284291.977070) can0 30D#0000001540B60000 R
(1611284291.991991) can0 6F6#1538997ABFB7FADF R
(1611284292.002012) can0 353#029C01011BB46780 R
(1611284292.012061) can0 330#0000000200000000 R
(1611284292.013143) can0 50C#1102EE0000000000 R
(1611284292.028477) can0 409#2480524440914921 R
(1611284292.029450) can0 403#420400D7D7020100 R
(1611284292.030439) can0 406#0504000700000000 R
(1611284292.032087) can0 128#00F1000000000000 R
(1611284292.041786) can0 2FC#0000000003000046 R
(1611284292.051995) can0 353#029C01011BB46780 R
(1611284292.062075) can0 340#0000000000000000 R
(1611284292.072066) can0 330#0000000200000000 R
(1611284292.073632) can0 2E6#348A120000000000 R
(1611284292.074632) can0 2EC#321E341E32DA0000 R
(1611284292.075622) can0 2EF#348A348A33460100 R
(1611284292.077840) can0 2F2#0A12110E09494500 R
(1611284292.077942) can0 30F#0A0A0A0A0A060000 R
(1611284292.078702) can0 311#1F8A1F0A1F1F5331 R
(1611284292.091792) can0 2E2#0000000000000000 R
(1611284292.092804) can0 313#9000000000000000 R
(1611284292.093827) can0 315#00000007FF000000 R
(1611284292.101331) can0 2D4#0000000010100000 R
(1611284292.102253) can0 353#029C01011BB46780 R
(1611284292.112123) can0 511#5502EE0000040400 R
(1611284292.132086) can0 128#00F1000000000000 R
(1611284292.133096) can0 330#0000000200000000 R
(1611284292.141802) can0 2FC#0000000003000046 R
(1611284292.152001) can0 353#029C01011BB46780 R
(1611284292.162089) can0 340#0000000000000000 R
(1611284292.192077) can0 330#0000000200000000 R
(1611284292.195239) can0 360#0000000000000000 R
(1611284292.196245) can0 365#0000000000000000 R
(1611284292.202015) can0 353#029C01011BB46780 R
(1611284292.211368) can0 555#5C02000000000000 R
(1611284292.232093) can0 128#00F1000000000000 R
(1611284292.233009) can0 6F6#1538997ABFB7FADF R
(1611284292.241828) can0 2FC#0000000003000046 R
(1611284292.252117) can0 330#0000000200000000 R
(1611284292.253033) can0 353#029C01011BB46780 R
(1611284292.262107) can0 340#0000000000000000 R
(1611284292.273556) can0 2E6#348A120000000000 R
(1611284292.274554) can0 2EC#321E341E32DA0000 R
(1611284292.275529) can0 2EF#348A348A33460100 R
(1611284292.276551) can0 2F2#0A12110E09494500 R
(1611284292.277576) can0 30F#0A0A0A0A0A060000 R
(1611284292.278633) can0 311#1F8A1F0A1F1F5331 R
(1611284292.279558) can0 409#2480524440914921 R
(1611284292.282110) can0 640#1000000000000000 R
(1611284292.302029) can0 353#029C01011BB46780 R
(1611284292.311946) can0 55C#0102000000000000 R
(1611284292.312936) can0 330#0000000200000000 R
(1611284292.332111) can0 128#00F1000000000000 R
(1611284292.341826) can0 2E2#0000000000000000 R
(1611284292.342868) can0 2FC#0000000003000046 R
(1611284292.343866) can0 307#0000008000000000 R
(1611284292.344874) can0 313#8E00000000000000 R
(1611284292.345890) can0 315#00000007FF000000 R
(1611284292.351371) can0 2D4#0000000010100000 R
(1611284292.352290) can0 353#029C01011BB46780 R
(1611284292.362173) can0 340#0000000000000000 R
(1611284292.372108) can0 330#0000000200000000 R
(1611284292.399016) can0 501#0C02EE0000000000 R
(1611284292.402041) can0 353#029C01011BB46780 R
(1611284292.432122) can0 128#00F1000000000000 R
(1611284292.433139) can0 330#0000000200000000 R
(1611284292.441881) can0 2FC#0000000003000046 R
(1611284292.452068) can0 353#029C01011BB46780 R
(1611284292.462132) can0 340#0000000000000000 R
(1611284292.472068) can0 6F6#150FAE4D8880CDE8 R
(1611284292.473555) can0 2E6#348A120000000000 R
(1611284292.474555) can0 2EC#321E341E32DA0000 R
(1611284292.475530) can0 2EF#348A348A33460100 R
(1611284292.476541) can0 2F2#0A12110E09494500 R
(1611284292.477607) can0 2F4#3000FFFFFFFC0000 R
(1611284292.478679) can0 2F9#0000000000000000 R
(1611284292.479654) can0 309#547269706C65204D R
(1611284292.480645) can0 30B#583A1073B203F858 R
(1611284292.481682) can0 30D#0000001540B60000 R
(1611284292.482731) can0 30F#0A0A0A0A0A060000 R
(1611284292.483746) can0 311#1F8A1F0A1F1F5331 R
(1611284292.484736) can0 317#5739453836313031 R
(1611284292.485826) can0 6FC#0000000000000000 R
(1611284292.492122) can0 330#0000000200000000 R
(1611284292.494488) can0 50C#1102EE0000000000 R
(1611284292.502058) can0 353#029C01011BB46780 R
(1611284292.529021) can0 409#2480524440914921 R
(1611284292.529970) can0 403#420400D7D7020100 R
(1611284292.530961) can0 406#0504000700000000 R
(1611284292.532129) can0 128#00F1000000000000 R
(1611284292.541867) can0 2FC#0000000003000046 R
(1611284292.552131) can0 330#0000000200000000 R
(1611284292.553050) can0 353#029C01011BB46780 R
(1611284292.562172) can0 340#0000000000000000 R
(1611284292.591907) can0 2E2#0000000000000000 R
(1611284292.592822) can0 511#5502EE0000040400 R
(1611284292.593804) can0 313#8F00000000000000 R
(1611284292.594836) can0 315#00000007FF000000 R
(1611284292.601423) can0 2D4#0000000010100000 R
(1611284292.602340) can0 353#029C01011BB46780 R
(1611284292.612142) can0 330#0000000200000000 R
(1611284292.632179) can0 128#00F1000000000000 R
(1611284292.641922) can0 2FC#0000000003000046 R
(1611284292.652107) can0 353#029C01011BB46780 R
(1611284292.662196) can0 340#0000000000000000 R
(1611284292.672187) can0 330#0000000200000000 R
(1611284292.674445) can0 2E6#348A120000000000 R
(1611284292.675440) can0 2EC#321E341E32DA0000 R
(1611284292.676486) can0 2EF#348A348A33460100 R
(1611284292.677412) can0 2F2#0A12110E09494500 R
(1611284292.678448) can0 30F#0A0A0A0A0A060000 R
(1611284292.679447) can0 311#1F8A1F0A1F1F5331 R
(1611284292.691486) can0 555#5C02000000000000 R
(1611284292.702115) can0 353#029C01011BB46780 R
(1611284292.706722) can0 360#0000000000000000 R
(1611284292.707721) can0 365#0000000000000000 R
(1611284292.712114) can0 6F6#150FAE4D8880CDE8 R
(1611284292.732168) can0 128#00F1000000000000 R
(1611284292.733153) can0 330#0000000200000000 R
(1611284292.741900) can0 2FC#0000000003000046 R
(1611284292.752084) can0 353#029C01011BB46780 R
(1611284292.762173) can0 340#0000000000000000 R
(1611284292.779307) can0 409#2480524440914921 R
(1611284292.792016) can0 55C#0102000000000000 R
(1611284292.793007) can0 330#0000000200000000 R
(1611284292.802121) can0 353#029C01011BB46780 R
(1611284292.832208) can0 128#00F1000000000000 R
(1611284292.841951) can0 2E2#0000000000000000 R
(1611284292.842967) can0 2FC#0000000003000046 R
(1611284292.843999) can0 307#0000008000000000 R
(1611284292.845005) can0 313#9100000000000000 R
(1611284292.846021) can0 315#00000007FF000000 R
(1611284292.851502) can0 2D4#0000000010100000 R
(1611284292.852493) can0 330#0000000200000000 R
(1611284292.853412) can0 353#029C01011BB46780 R
(1611284292.862223) can0 340#0000000000000000 R
(1611284292.874286) can0 2E6#348A120000000000 R
(1611284292.875285) can0 2EC#321E341E32DA0000 R
(1611284292.876260) can0 2EF#348A348A33460100 R
(1611284292.877261) can0 2F2#0A12110E09494500 R
(1611284292.878306) can0 30F#0A0A0A0A0A060000 R
(1611284292.879352) can0 311#1F8A1F0A1F1F5331 R
(1611284292.880339) can0 501#0C02EE0000000000 R
(1611284292.902151) can0 353#029C01011BB46780 R
(1611284292.912244) can0 330#0000000200000000 R
(1611284292.932190) can0 128#00F1000000000000 R
(1611284292.933347) can0 2F5#101A547269706C65 R
(1611284292.934379) can0 2F6#300A000000000000 R
(1611284292.941941) can0 2FC#0000000003000046 R
(1611284292.943740) can0 2F5#21204D20524F434B R
(1611284292.952148) can0 353#029C01011BB46780 R
(1611284292.953058) can0 6F6#150FAE4D8880CDE8 R
(1611284292.953978) can0 2F5#2253204D656C626F R
(1611284292.962204) can0 340#0000000000000000 R
(1611284292.964426) can0 2F5#2375726E65210300 R
(1611284292.972189) can0 330#0000000200000000 R
(1611284292.974571) can0 2F4#3000FFFFFFFC0000 R
(1611284292.975642) can0 2F9#0000000000000000 R
(1611284292.976622) can0 309#547269706C65204D R
(1611284292.977610) can0 30B#583A1073B203F858 R
(1611284292.978654) can0 30D#0000001540B60000 R
(1611284292.979695) can0 50C#1102EE0000000000 R
(1611284293.002124) can0 353#029C01011BB46780 R
(1611284293.029591) can0 409#2480524440914921 R
(1611284293.030568) can0 403#420400D7D7020100 R
(1611284293.031532) can0 406#0504000700000000 R
(1611284293.032531) can0 128#00F1000000000000 R
(1611284293.033523) can0 330#0000000200000000 R
(1611284293.042077) can0 2FC#0000000003000046 R
(1611284293.052125) can0 353#029C01011BB46780 R
(1611284293.062213) can0 340#0000000000000000 R
(1611284293.072213) can0 511#5502EE0000040400 R
(1611284293.074756) can0 2E6#348A120000000000 R
(1611284293.075755) can0 2EC#321E341E32DA0000 R
(1611284293.076731) can0 2EF#348A348A33460100 R
(1611284293.077721) can0 2F2#0A12110E09494500 R
(1611284293.078823) can0 30F#0A0A0A0A0A060000 R
(1611284293.079800) can0 311#1F8A1F0A1F1F5331 R
(1611284293.091987) can0 2E2#0000000000000000 R
(1611284293.092972) can0 330#0000000200000000 R
(1611284293.093927) can0 313#8E00000000000000 R
(1611284293.094946) can0 315#00000007FF000000 R
(1611284293.101516) can0 2D4#0000000010100000 R
(1611284293.102459) can0 353#029C01011BB46780 R
(1611284293.132249) can0 128#00F1000000000000 R
(1611284293.141976) can0 2FC#0000000003000046 R
(1611284293.152228) can0 330#0000000200000000 R
(1611284293.153161) can0 353#029C01011BB46780 R
(1611284293.162235) can0 340#0000000000000000 R
(1611284293.171565) can0 555#5C02000000000000 R
(1611284293.192150) can0 6F6#150FAE4D8880CDE8 R
(1611284293.202156) can0 353#029C01011BB46780 R
(1611284293.212229) can0 330#0000000200000000 R
(1611284293.218233) can0 360#0000000000000000 R
(1611284293.219235) can0 365#0000000000000000 R
(1611284293.232269) can0 128#00F1000000000000 R
(1611284293.242032) can0 2FC#0000000003000046 R
(1611284293.252229) can0 353#029C01011BB46780 R
(1611284293.262280) can0 340#0000000000000000 R
(1611284293.272136) can0 55C#0102000000000000 R
(1611284293.273156) can0 330#0000000200000000 R
(1611284293.274164) can0 640#1000000000000000 R
(1611284293.276273) can0 2E6#348A120000000000 R
(1611284293.277266) can0 2EC#321E341E32DA0000 R
(1611284293.278241) can0 2EF#348A348A33460100 R
(1611284293.279232) can0 2F2#0A12110E09494500 R
(1611284293.280159) can0 409#2480524440914921 R
(1611284293.281135) can0 30F#0A0A0A0A0A060000 R
(1611284293.282150) can0 311#1F8A1F0A1F1F5331 R
(1611284293.302209) can0 353#029C01011BB46780 R
(1611284293.332446) can0 128#00F1000000000000 R
(1611284293.333273) can0 330#0000000200000000 R
(1611284293.342005) can0 2E2#0000000000000000 R
(1611284293.343020) can0 2FC#0000000003000046 R
(1611284293.344068) can0 307#0000008000000000 R
(1611284293.345057) can0 313#8F00000000000000 R
(1611284293.346074) can0 315#00000007FF000000 R
(1611284293.351565) can0 2D4#0000000010100000 R
(1611284293.352506) can0 353#029C01011BB46780 R
(1611284293.360148) can0 501#0C02EE0000000000 R
(1611284293.362280) can0 340#0000000000000000 R
(1611284293.392256) can0 330#0000000200000000 R
(1611284293.402186) can0 353#029C01011BB46780 R
(1611284293.433846) can0 128#00F1000000000000 R
(1611284293.442062) can0 2FC#0000000003000046 R
(1611284293.442989) can0 6F6#1512B350959DD0F5 R
(1611284293.452307) can0 330#0000000200000000 R
(1611284293.453258) can0 353#029C01011BB46880 R
(1611284293.457858) can0 50C#1102EE0000000000 R
(1611284293.462333) can0 340#0000000000000000 R
(1611284293.477765) can0 2E6#348A120000000000 R
(1611284293.478753) can0 2EC#321E341E32DA0000 R
(1611284293.479732) can0 2EF#348A348A33460100 R
(1611284293.480723) can0 2F2#0A12110E09494500 R
(1611284293.481795) can0 2F4#3000FFFFFFFC0000 R
(1611284293.482865) can0 2F9#0000000000000000 R
(1611284293.483840) can0 309#547269706C65204D R
(1611284293.484849) can0 30B#583A1073B203F858 R
(1611284293.485888) can0 30D#0000001540B60000 R
(1611284293.486910) can0 30F#0A0A0A0A0A060000 R
(1611284293.487953) can0 311#1F8A1F0A1F1F5331 R
(1611284293.488945) can0 317#5739453836313031 R
(1611284293.490031) can0 6FC#0000000000000000 R
(1611284293.502229) can0 353#029C01011BB46780 R
(1611284293.512313) can0 330#0000000200000000 R
(1611284293.530210) can0 409#2480524440914921 R
(1611284293.531190) can0 403#420400D7D7020100 R
(1611284293.532193) can0 406#0504000700000000 R
(1611284293.533831) can0 128#00F1000000000000 R
(1611284293.542005) can0 2FC#0000000003000046 R
(1611284293.552168) can0 353#029C01011BB46780 R
(1611284293.553132) can0 511#5502EE0000040400 R
(1611284293.562243) can0 340#0000000000000000 R
(1611284293.572286) can0 330#0000000200000000 R
(1611284293.592009) can0 2E2#0000000000000000 R
(1611284293.593040) can0 313#9000000000000000 R
(1611284293.594053) can0 315#00000007FF000000 R
(1611284293.601583) can0 2D4#0000000010100000 R
(1611284293.602500) can0 353#029C01011BB46780 R
(1611284293.632254) can0 128#00F1000000000000 R
(1611284293.634613) can0 330#0000000200000000 R
(1611284293.642093) can0 2FC#0000000003000046 R
(1611284293.651662) can0 555#5C02000000000000 R
(1611284293.652610) can0 353#029C01011BB46780 R
(1611284293.662334) can0 340#0000000000000000 R
(1611284293.672310) can0 6F6#1512B350959DD0F5 R
(1611284293.678065) can0 2E6#348A120000000000 R
(1611284293.679056) can0 2EC#321E341E32DA0000 R
(1611284293.680031) can0 2EF#348A348A33460100 R
(1611284293.681009) can0 2F2#0A12110E09494500 R
(1611284293.682097) can0 30F#0A0A0A0A0A060000 R
(1611284293.683109) can0 311#1F8A1F0A1F1F5331 R
(1611284293.692329) can0 330#0000000200000000 R
(1611284293.702260) can0 353#029C01011BB46780 R
(1611284293.729676) can0 360#0000000000000000 R
(1611284293.730706) can0 365#0000000000000000 R
(1611284293.732334) can0 128#00F1000000000000 R
(1611284293.742079) can0 2FC#0000000003000046 R
(1611284293.752180) can0 55C#0102000000000000 R
(1611284293.753170) can0 330#0000000200000000 R
(1611284293.754089) can0 353#029C01011BB46780 R
(1611284293.762317) can0 340#0000000000000000 R
(1611284293.780452) can0 409#2480524440914921 R
(1611284293.802240) can0 353#029C01011BB46780 R
(1611284293.812308) can0 330#0000000200000000 R
(1611284293.832323) can0 128#00F1000000000000 R
(1611284293.840755) can0 501#0C02EE0000000000 R
(1611284293.842120) can0 2E2#0000000000000000 R
(1611284293.843135) can0 2FC#0000000003000046 R
(1611284293.844166) can0 307#0000008000000000 R
(1611284293.845180) can0 313#8F00000000000000 R
(1611284293.846213) can0 315#00000007FF000000 R
(1611284293.851688) can0 2D4#0000000010100000 R
(1611284293.852603) can0 353#029C01011BB46780 R
(1611284293.862374) can0 340#0000000000000000 R
(1611284293.872350) can0 330#0000000200000000 R
(1611284293.882175) can0 2E6#348A120000000000 R
(1611284293.883189) can0 2EC#321E341E32DA0000 R
(1611284293.884164) can0 2EF#348A348A33460100 R
(1611284293.885154) can0 2F2#0A12110E09494500 R
(1611284293.886243) can0 30F#0A0A0A0A0A060000 R
(1611284293.887256) can0 311#1F8A1F0A1F1F5331 R
(1611284293.902314) can0 353#029C01011BB46780 R
(1611284293.922264) can0 6F6#1512B350959DD0F5 R
(1611284293.923265) can0 50C#1102EE0000000000 R
(1611284293.932365) can0 128#00F1000000000000 R
(1611284293.934178) can0 330#0000000200000000 R
(1611284293.942083) can0 2FC#0000000003000046 R
(1611284293.952228) can0 353#029C01011BB46780 R
(1611284293.962314) can0 340#0000000000000000 R
(1611284293.982413) can0 2F4#3000FFFFFFFC0000 R
(1611284293.983480) can0 2F9#0000000000000000 R
(1611284293.984455) can0 309#547269706C65204D R
(1611284293.985427) can0 30B#583A1073B203F858 R
(1611284293.986516) can0 30D#0000001540B60000 R
(1611284293.992308) can0 330#0000000200000000 R
(1611284294.002267) can0 353#029C01011BB46780 R
(1611284294.022321) can0 511#5502EE0000040400 R
(1611284294.030788) can0 409#2480524440914921 R
(1611284294.031716) can0 403#420400D7D7020100 R
(1611284294.032738) can0 128#00F1000000000000 R
(1611284294.034500) can0 406#0504000700000000 R
(1611284294.042127) can0 2FC#0000000003000046 R
(1611284294.052368) can0 330#0000000200000000 R
(1611284294.053285) can0 353#029C01011BB46780 R
(1611284294.062363) can0 340#0000000000000000 R
(1611284294.083865) can0 2E6#348A120000000000 R
(1611284294.084860) can0 2EC#321E341E32DA0000 R
(1611284294.085849) can0 2EF#348A348A33460100 R
(1611284294.086808) can0 2F2#0A12110E09494500 R
(1611284294.087891) can0 30F#0A0A0A0A0A060000 R
(1611284294.088883) can0 311#1F8A1F0A1F1F5331 R
(1611284294.092156) can0 2E2#0000000000000000 R
(1611284294.093156) can0 313#8D00000000000000 R
(1611284294.094142) can0 315#00000007FF000000 R
(1611284294.101722) can0 2D4#0000000010100000 R
(1611284294.102613) can0 353#029C01011BB46780 R
(1611284294.111711) can0 555#5C02000000000000 R
(1611284294.112727) can0 330#0000000200000000 R
(1611284294.132390) can0 128#00F1000000000000 R
(1611284294.142145) can0 2FC#0000000003000046 R
(1611284294.152308) can0 353#029C01011BB46780 R
(1611284294.162397) can0 340#0000000000000000 R
(1611284294.163288) can0 6F6#1512B350959DD0F5 R
(1611284294.172369) can0 330#0000000200000000 R
(1611284294.202320) can0 353#029C01011BB46780 R
(1611284294.212261) can0 55C#0102000000000000 R
(1611284294.232402) can0 128#00F1000000000000 R
(1611284294.233391) can0 330#0000000200000000 R
(1611284294.241188) can0 360#0000000000000000 R
(1611284294.242223) can0 365#0000000000000000 R
(1611284294.243213) can0 2FC#0000000003000046 R
(1611284294.252329) can0 353#029C01011BB46780 R
(1611284294.262452) can0 340#0000000000000000 R
(1611284294.272426) can0 640#1000000000000000 R
(1611284294.281086) can0 409#2480524440914921 R
(1611284294.283473) can0 2E6#348A120000000000 R
(1611284294.284471) can0 2EC#321E341E32DA0000 R
(1611284294.285443) can0 2EF#348A348A33460100 R
(1611284294.286492) can0 2F2#0A12110E09494500 R
(1611284294.287535) can0 30F#0A0A0A0A0A060000 R
(1611284294.288550) can0 311#1F8A1F0A1F1F5331 R
(1611284294.292413) can0 330#0000000200000000 R
(1611284294.301286) can0 501#0C02EE0000000000 R
(1611284294.302369) can0 353#029C01011BB46780 R
(1611284294.332420) can0 128#00F1000000000000 R
(1611284294.342178) can0 2E2#0000000000000000 R
(1611284294.343217) can0 2FC#0000000003000046 R
(1611284294.344212) can0 307#0000008000000000 R
(1611284294.345253) can0 313#8F00000000000000 R
(1611284294.346244) can0 315#00000007FF000000 R
(1611284294.351742) can0 2D4#0000000010100000 R
(1611284294.352755) can0 330#0000000200000000 R
(1611284294.353673) can0 353#029C01011BB46780 R
(1611284294.362399) can0 340#0000000000000000 R
(1611284294.384074) can0 50C#1102EE0000000000 R
(1611284294.402317) can0 353#029C01011BB46780 R
(1611284294.403233) can0 6F6#1512B350959DD0F5 R
(1611284294.412392) can0 330#0000000200000000 R
(1611284294.432395) can0 128#00F1000000000000 R
(1611284294.442233) can0 2FC#0000000003000046 R
(1611284294.452417) can0 353#029C01011BB46780 R
(1611284294.462442) can0 340#0000000000000000 R
(1611284294.472433) can0 330#0000000200000000 R
(1611284294.482474) can0 511#5502EE0000040400 R
(1611284294.483757) can0 2E6#348A120000000000 R
(1611284294.484756) can0 2EC#321E341E32DA0000 R
(1611284294.485732) can0 2EF#348A348A33460100 R
(1611284294.486712) can0 2F2#0A12110E09494500 R
(1611284294.487793) can0 2F4#3000FFFFFFFC0000 R
(1611284294.488880) can0 2F9#0000000000000000 R
(1611284294.489847) can0 309#547269706C65204D R
(1611284294.490851) can0 30B#583A1073B203F858 R
(1611284294.491859) can0 30D#0000001540B60000 R
(1611284294.492916) can0 30F#0A0A0A0A0A060000 R
(1611284294.493986) can0 311#1F8A1F0A1F1F5331 R
(1611284294.494950) can0 317#5739453836313031 R
(1611284294.496020) can0 6FC#0000000000000000 R
(1611284294.502380) can0 353#029C01011BB46780 R
(1611284294.531351) can0 409#2480524440914921 R
(1611284294.532299) can0 403#420400D7D7020100 R
(1611284294.533320) can0 128#00F1000000000000 R
(1611284294.534319) can0 330#0000000200000000 R
(1611284294.535277) can0 406#0504000700000000 R
(1611284294.542215) can0 2FC#0000000003000046 R
(1611284294.552285) can0 353#029C01011BB46780 R
(1611284294.562398) can0 340#0000000000000000 R
(1611284294.571746) can0 555#5C02000000000000 R
(1611284294.592308) can0 2E2#0000000000000000 R
(1611284294.593290) can0 330#0000000200000000 R
(1611284294.594265) can0 313#9100000000000000 R
(1611284294.595280) can0 315#00000007FF000000 R
(1611284294.601737) can0 2D4#0000000010100000 R
(1611284294.602685) can0 353#029C01011BB46780 R
(1611284294.632400) can0 128#00F1000000000000 R
(1611284294.642201) can0 2FC#0000000003000046 R
(1611284294.643666) can0 6F6#15E140A3666E2306 R
(1611284294.652381) can0 330#0000000200000000 R
(1611284294.653289) can0 353#029C01011BB46780 R
(1611284294.662394) can0 340#0000000000000000 R
(1611284294.672277) can0 55C#0102000000000000 R
(1611284294.684610) can0 2E6#348A120000000000 R
(1611284294.685616) can0 2EC#321E341E32DA0000 R
(1611284294.686601) can0 2EF#348A348A33460100 R
(1611284294.687583) can0 2F2#0A12110E09494500 R
(1611284294.688637) can0 30F#0A0A0A0A0A060000 R
(1611284294.689654) can0 311#1F8A1F0A1F1F5331 R
(1611284294.702310) can0 353#029C01011BB46780 R
(1611284294.712393) can0 330#0000000200000000 R
(1611284294.732396) can0 128#00F1000000000000 R
(1611284294.742202) can0 2FC#0000000003000046 R
(1611284294.752336) can0 353#029C01011BB46780 R
(1611284294.753320) can0 360#0000000000000000 R
(1611284294.754325) can0 365#0000000000000000 R
(1611284294.761678) can0 501#0C02EE0000000000 R
(1611284294.762661) can0 340#0000000000000000 R
(1611284294.772410) can0 330#0000000200000000 R
(1611284294.781618) can0 409#2480524440914921 R
(1611284294.802334) can0 353#029C01011BB46780 R
(1611284294.832401) can0 128#00F1000000000000 R
(1611284294.833403) can0 330#0000000200000000 R
(1611284294.842195) can0 2E2#0000000000000000 R
(1611284294.843609) can0 2FC#0000000003000046 R
(1611284294.844228) can0 307#0000008000000000 R
(1611284294.845235) can0 313#8E00000000000000 R
(1611284294.846226) can0 50C#1102EE0000000000 R
(1611284294.847215) can0 315#00000007FF000000 R
(1611284294.851763) can0 2D4#0000000010100000 R
(1611284294.852681) can0 353#029C01011BB46780 R
(1611284294.862415) can0 340#0000000000000000 R
(1611284294.882336) can0 6F6#15E140A3666E2306 R
(1611284294.884897) can0 2E6#348A120000000000 R
(1611284294.885877) can0 2EC#321E341E32DA0000 R
(1611284294.886864) can0 2EF#348A348A33460100 R
(1611284294.887853) can0 2F2#0A12110E09494500 R
(1611284294.888908) can0 30F#0A0A0A0A0A060000 R
(1611284294.889911) can0 311#1F8A1F0A1F1F5331 R
(1611284294.892429) can0 330#0000000200000000 R
(1611284294.902343) can0 353#029C01011BB46780 R
(1611284294.932425) can0 128#00F1000000000000 R
(1611284294.942210) can0 2FC#0000000003000046 R
(1611284294.943151) can0 511#5502EE0000040400 R
(1611284294.952412) can0 330#0000000200000000 R
(1611284294.953317) can0 353#029C01011BB46780 R
(1611284294.962419) can0 340#0000000000000000 R
(1611284294.986591) can0 2F4#3000FFFFFFFC0000 R
(1611284294.987668) can0 2F9#0000000000000000 R
(1611284294.988642) can0 309#547269706C65204D R
(1611284294.989633) can0 30B#583A1073B203F858 R
(1611284294.990693) can0 30D#0000001540B60000 R
(1611284295.002371) can0 353#029C01011BB46780 R
(1611284295.012420) can0 330#0000000200000000 R
(1611284295.031836) can0 555#5C02000000000000 R
(1611284295.032824) can0 128#00F1000000000000 R
(1611284295.033775) can0 403#420400D7D7020100 R
(1611284295.034766) can0 406#0504000700000000 R
(1611284295.035693) can0 409#2480524440914921 R
(1611284295.042228) can0 2FC#0000000003000046 R
(1611284295.052357) can0 353#029C01011BB46780 R
(1611284295.062436) can0 340#0000000000000000 R
(1611284295.072434) can0 330#0000000200000000 R
(1611284295.086551) can0 2E6#348A120000000000 R
(1611284295.087570) can0 2EC#321E341E32DA0000 R
(1611284295.088565) can0 2EF#348A348A33460100 R
(1611284295.089534) can0 2F2#0A12110E09494500 R
(1611284295.090589) can0 30F#0A0A0A0A0A060000 R
(1611284295.091592) can0 311#1F8A1F0A1F1F5331 R
(1611284295.092597) can0 2E2#0000000000000000 R
(1611284295.093598) can0 313#8D00000000000000 R
(1611284295.094611) can0 315#00000007FF000000 R
(1611284295.101821) can0 2D4#0000000010100000 R
(1611284295.102748) can0 353#029C01011BB46780 R
(1611284295.122367) can0 6F6#15E140A3666E2306 R
(1611284295.132386) can0 55C#0102000000000000 R
(1611284295.133366) can0 128#00F1000000000000 R
(1611284295.134368) can0 330#0000000200000000 R
(1611284295.142246) can0 2FC#0000000003000046 R
(1611284295.152386) can0 353#029C01011BB46780 R
(1611284295.162487) can0 340#0000000000000000 R
(1611284295.192482) can0 330#0000000200000000 R
(1611284295.202392) can0 353#029C01011BB46780 R
(1611284295.222225) can0 501#0C02EE0000000000 R
(1611284295.232462) can0 128#00F1000000000000 R
(1611284295.242283) can0 2FC#0000000003000046 R
(1611284295.252523) can0 330#0000000200000000 R
(1611284295.253415) can0 353#029C01011BB46780 R
(1611284295.262519) can0 340#0000000000000000 R
(1611284295.263505) can0 640#1000000000000000 R
(1611284295.264510) can0 360#0000000000000000 R
(1611284295.265516) can0 365#0000000000000000 R
(1611284295.282152) can0 409#2480524440914921 R
(1611284295.285911) can0 2E6#348A120000000000 R
(1611284295.286910) can0 2EC#321E341E32DA0000 R
(1611284295.287879) can0 2EF#348A348A33460100 R
(1611284295.288886) can0 2F2#0A12110E09494500 R
(1611284295.289941) can0 30F#0A0A0A0A0A060000 R
(1611284295.290999) can0 311#1F8A1F0A1F1F5331 R
(1611284295.302437) can0 353#029C01011BB46780 R
(1611284295.306531) can0 50C#1102EE0000000000 R
(1611284295.312492) can0 330#0000000200000000 R
(1611284295.332526) can0 128#00F1000000000000 R
(1611284295.342327) can0 2E2#0000000000000000 R
(1611284295.343843) can0 2FC#0000000003000046 R
(1611284295.344306) can0 307#0000008000000000 R
(1611284295.345326) can0 313#8F00000000000000 R
(1611284295.346336) can0 315#00000007FF000000 R
(1611284295.351855) can0 2D4#0000000010100000 R
(1611284295.352781) can0 353#029C01011BB46780 R
(1611284295.362457) can0 340#0000000000000000 R
(1611284295.363377) can0 6F6#15E140A3666E2306 R
(1611284295.372461) can0 330#0000000200000000 R
(1611284295.402406) can0 353#029C01011BB46780 R
(1611284295.403348) can0 511#5502EE0000040400 R
(1611284295.432490) can0 128#00F1000000000000 R
(1611284295.433470) can0 330#0000000200000000 R
(1611284295.442283) can0 2FC#0000000003000046 R
(1611284295.452468) can0 353#029C01011BB46780 R
(1611284295.462507) can0 340#0000000000000000 R
(1611284295.487087) can0 2E6#348A120000000000 R
(1611284295.488078) can0 2EC#321E341E32DA0000 R
(1611284295.489053) can0 2EF#348A348A33460100 R
(1611284295.490045) can0 2F2#0A12110E09494500 R
(1611284295.491116) can0 2F4#3000FFFFFFFC0000 R
(1611284295.492083) can0 555#5C02000000000000 R
(1611284295.493092) can0 2F9#0000000000000000 R
(1611284295.494087) can0 330#0000000200000000 R
(1611284295.494994) can0 309#547269706C65204D R
(1611284295.495991) can0 30B#583A1073B203F858 R
(1611284295.497009) can0 30D#0000001540B60000 R
(1611284295.498055) can0 30F#0A0A0A0A0A060000 R
(1611284295.499071) can0 311#1F8A1F0A1F1F5331 R
(1611284295.500065) can0 317#5739453836313031 R
(1611284295.501157) can0 6FC#0000000000000000 R
(1611284295.502416) can0 353#029C01011BB46780 R
(1611284295.532405) can0 409#2480524440914921 R
(1611284295.533410) can0 128#00F1000000000000 R
(1611284295.534359) can0 403#420400D7D7020100 R
(1611284295.535350) can0 406#0504000700000000 R
(1611284295.542323) can0 2FC#0000000003000046 R
(1611284295.552514) can0 330#0000000200000000 R
(1611284295.553427) can0 353#029C01011BB46780 R
(1611284295.562495) can0 340#0000000000000000 R
(1611284295.592323) can0 2E2#0000000000000000 R
(1611284295.593330) can0 313#9100000000000000 R
(1611284295.594333) can0 315#00000007FF000000 R
(1611284295.595366) can0 55C#0102000000000000 R
(1611284295.601898) can0 2D4#0000000010100000 R
(1611284295.602812) can0 353#029C01011BB46780 R
(1611284295.603728) can0 6F6#15C955B6F26835D9 R
(1611284295.612499) can0 330#0000000200000000 R
(1611284295.632512) can0 128#00F1000000000000 R
(1611284295.642318) can0 2FC#0000000003000046 R
(1611284295.652449) can0 353#029C01011BB46780 R
(1611284295.662553) can0 340#0000000000000000 R
(1611284295.672522) can0 330#0000000200000000 R
(1611284295.682775) can0 501#0C02EE0000000000 R
(1611284295.688260) can0 2E6#348A120000000000 R
(1611284295.689252) can0 2EC#321E341E32DA0000 R
(1611284295.690227) can0 2EF#348A348A33460100 R
(1611284295.691218) can0 2F2#0A12110E09494500 R
(1611284295.692285) can0 30F#0A0A0A0A0A060000 R
(1611284295.693288) can0 311#1F8A1F0A1F1F5331 R
(1611284295.702464) can0 353#029C01011BB46780 R
(1611284295.732534) can0 128#00F1000000000000 R
(1611284295.733543) can0 330#0000000200000000 R
(1611284295.742370) can0 2FC#0000000003000046 R
(1611284295.752445) can0 353#029C01011BB46780 R
(1611284295.762545) can0 340#0000000000000000 R
(1611284295.769762) can0 50C#1102EE0000000000 R
(1611284295.775517) can0 360#0000000000000000 R
(1611284295.776492) can0 365#0000000000000000 R
(1611284295.782694) can0 409#2480524440914921 R
(1611284295.792526) can0 330#0000000200000000 R
(1611284295.802481) can0 353#029C01011BB46780 R
(1611284295.832541) can0 128#00F1000000000000 R
(1611284295.842365) can0 2E2#0000000000000000 R
(1611284295.843969) can0 6F6#15C955B6F26835D9 R
(1611284295.844262) can0 2FC#0000000003000046 R
(1611284295.845314) can0 307#0000008000000000 R
(1611284295.846343) can0 313#8F00000000000000 R
(1611284295.847372) can0 315#00000007FF000000 R
(1611284295.851970) can0 2D4#0000000010100000 R
(1611284295.852960) can0 330#0000000200000000 R
(1611284295.853879) can0 353#029C01011BB46780 R
(1611284295.862563) can0 340#0000000000000000 R
(1611284295.863528) can0 511#5502EE0000040400 R
(1611284295.890733) can0 2E6#348A120000000000 R
(1611284295.891701) can0 2EC#321E341E32DA0000 R
(1611284295.892675) can0 2EF#348A348A33460100 R
(1611284295.893653) can0 2F2#0A12110E09494500 R
(1611284295.894706) can0 30F#0A0A0A0A0A060000 R
(1611284295.895721) can0 311#1F8A1F0A1F1F5331 R
(1611284295.902476) can0 353#029C01011BB46780 R
(1611284295.912571) can0 330#0000000200000000 R
(1611284295.932573) can0 128#00F1000000000000 R
(1611284295.942407) can0 2FC#0000000003000046 R
(1611284295.952009) can0 555#5C02000000000000 R
(1611284295.952917) can0 353#029C01011BB46780 R
(1611284295.962567) can0 340#0000000000000000 R
(1611284295.972585) can0 330#0000000200000000 R
(1611284295.992069) can0 2F4#3000FFFFFFFC0000 R
(1611284295.993127) can0 2F9#0000000000000000 R
(1611284295.994104) can0 309#547269706C65204D R
(1611284295.995093) can0 30B#583A1073B203F858 R
(1611284295.996131) can0 30D#0000001540B60000 R
(1611284296.002491) can0 353#029C01011BB46780 R
(1611284296.032582) can0 128#00F1000000000000 R
(1611284296.033575) can0 330#0000000200000000 R
(1611284296.034523) can0 403#420400D7D7020100 R
(1611284296.035515) can0 406#0504000700000000 R
(1611284296.036455) can0 409#2480524440914921 R
(1611284296.042404) can0 2FC#0000000003000046 R
(1611284296.052531) can0 55C#0102000000000000 R
(1611284296.053449) can0 353#029C01011BB46780 R
(1611284296.062569) can0 340#0000000000000000 R
(1611284296.082492) can0 6F6#15C955B6F26835D9 R
(1611284296.091936) can0 2E6#348A120000000000 R
(1611284296.092931) can0 2E2#0000000000000000 R
(1611284296.093873) can0 2EC#321E341E32DA0000 R
(1611284296.094846) can0 313#8E00000000000000 R
(1611284296.095766) can0 2EF#348A348A33460100 R
(1611284296.096755) can0 315#00000007FF000000 R
(1611284296.097694) can0 2F2#0A12110E09494500 R
(1611284296.098701) can0 330#0000000200000000 R
(1611284296.099663) can0 30F#0A0A0A0A0A060000 R
(1611284296.100677) can0 311#1F8A1F0A1F1F5331 R
(1611284296.101986) can0 2D4#0000000010100000 R
(1611284296.102904) can0 353#029C01011BB46780 R
(1611284296.132582) can0 128#00F1000000000000 R
(1611284296.142577) can0 2FC#0000000003000046 R
(1611284296.143531) can0 501#0C02EE0000000000 R
(1611284296.152594) can0 330#0000000200000000 R
(1611284296.153507) can0 353#029C01011BB46780 R
(1611284296.162597) can0 340#0000000000000000 R
(1611284296.202542) can0 353#029C01011BB46780 R
(1611284296.212615) can0 330#0000000200000000 R
(1611284296.232225) can0 50C#1102EE0000000000 R
(1611284296.233232) can0 128#00F1000000000000 R
(1611284296.242458) can0 2FC#0000000003000046 R
(1611284296.252534) can0 353#029C01011BB46780 R
(1611284296.254073) can0 640#1000000000000000 R
(1611284296.262617) can0 340#0000000000000000 R
(1611284296.272602) can0 330#0000000200000000 R
(1611284296.283321) can0 409#2480524440914921 R
(1611284296.287006) can0 360#0000000000000000 R
(1611284296.287999) can0 365#0000000000000000 R
(1611284296.292345) can0 2E6#348A120000000000 R
(1611284296.293340) can0 2EC#321E341E32DA0000 R
(1611284296.294303) can0 2EF#348A348A33460100 R
(1611284296.295293) can0 2F2#0A12110E09494500 R
(1611284296.296348) can0 30F#0A0A0A0A0A060000 R
(1611284296.297378) can0 311#1F8A1F0A1F1F5331 R
(1611284296.302529) can0 353#029C01011BB46780 R
(1611284296.322533) can0 6F6#15C955B6F26835D9 R
(1611284296.332634) can0 128#00F1000000000000 R
(1611284296.333590) can0 330#0000000200000000 R
(1611284296.334541) can0 511#5502EE0000040400 R
(1611284296.342463) can0 2E2#0000000000000000 R
(1611284296.343473) can0 2FC#0000000003000046 R
(1611284296.344496) can0 307#0000008000000000 R
(1611284296.345504) can0 313#8E00000000000000 R
(1611284296.346520) can0 315#00000007FF000000 R
(1611284296.352033) can0 2D4#0000000010100000 R
(1611284296.352994) can0 353#029C01011BB46780 R
(1611284296.362634) can0 340#0000000000000000 R
(1611284296.392607) can0 330#0000000200000000 R
(1611284296.402531) can0 353#029C01011BB46780 R
(1611284296.432059) can0 555#5C02000000000000 R
(1611284296.433073) can0 128#00F1000000000000 R
(1611284296.442488) can0 2FC#0000000003000046 R
(1611284296.452611) can0 330#0000000200000000 R
(1611284296.454363) can0 353#029C01011BB46780 R
(1611284296.462654) can0 340#0000000000000000 R
(1611284296.493686) can0 2E6#348A120000000000 R
(1611284296.494685) can0 2EC#321E341E32DA0000 R
(1611284296.495661) can0 2EF#348A348A33460100 R
(1611284296.496668) can0 2F2#0A12110E09494500 R
(1611284296.497753) can0 2F4#3000FFFFFFFC0000 R
(1611284296.498809) can0 2F9#0000000000000000 R
(1611284296.499809) can0 309#547269706C65204D R
(1611284296.500789) can0 30B#583A1073B203F858 R
(1611284296.501837) can0 30D#0000001540B60000 R
(1611284296.502757) can0 353#029C01011BB46780 R
(1611284296.503730) can0 30F#0A0A0A0A0A060000 R
(1611284296.504747) can0 311#1F8A1F0A1F1F5331 R
(1611284296.505739) can0 317#5739453836313031 R
(1611284296.506836) can0 6FC#0000000000000000 R
(1611284296.512635) can0 330#0000000200000000 R
(1611284296.532607) can0 55C#0102000000000000 R
(1611284296.533600) can0 128#00F1000000000000 R
(1611284296.534550) can0 403#420400D7D7020100 R
(1611284296.535539) can0 406#0504000700000000 R
(1611284296.536496) can0 409#2480524440914921 R
(1611284296.542501) can0 2FC#0000000003000046 R
(1611284296.552579) can0 353#029C01011BB46780 R
(1611284296.562642) can0 340#0000000000000000 R
(1611284296.563528) can0 6F6#15DB7A995C54193C R
(1611284296.572643) can0 330#0000000200000000 R
(1611284296.592494) can0 2E2#0000000000000000 R
(1611284296.593494) can0 313#8E00000000000000 R
(1611284296.594508) can0 315#00000007FF000000 R
(1611284296.602071) can0 2D4#0000000010100000 R
(1611284296.602988) can0 353#029C01011BB46780 R
(1611284296.623779) can0 501#0C02EE0000000000 R
(1611284296.632646) can0 128#00F1000000000000 R
(1611284296.633631) can0 330#0000000200000000 R
(1611284296.642498) can0 2FC#0000000003000046 R
(1611284296.652599) can0 353#029C01011BB46780 R
(1611284296.662672) can0 340#0000000000000000 R
(1611284296.692669) can0 330#0000000200000000 R
(1611284296.694658) can0 2E6#348A120000000000 R
(1611284296.695652) can0 2EC#321E341E32DA0000 R
(1611284296.696635) can0 2EF#348A348A33460100 R
(1611284296.697605) can0 2F2#0A12110E09494500 R
(1611284296.698666) can0 30F#0A0A0A0A0A060000 R
(1611284296.699724) can0 311#1F8A1F0A1F1F5331 R
(1611284296.702597) can0 353#029C01011BB46780 R
(1611284296.715641) can0 50C#1102EE0000000000 R
(1611284296.732677) can0 128#00F1000000000000 R
(1611284296.742565) can0 2FC#0000000003000046 R
(1611284296.752693) can0 330#0000000200000000 R
(1611284296.753606) can0 353#029C01011BB46780 R
(1611284296.762697) can0 340#0000000000000000 R
(1611284296.783826) can0 409#2480524440914921 R
(1611284296.798439) can0 360#0000000000000000 R
(1611284296.799428) can0 365#0000000000000000 R
(1611284296.802580) can0 353#029C01011BB46780 R
(1611284296.803506) can0 6F6#15DB7A995C54193C R
(1611284296.812683) can0 330#0000000200000000 R
(1611284296.813628) can0 511#5502EE0000040400 R
(1611284296.832682) can0 128#00F1000000000000 R
(1611284296.842549) can0 2E2#0000000000000000 R
(1611284296.843548) can0 2FC#0000000003000046 R
(1611284296.844571) can0 307#0000008000000000 R
(1611284296.845595) can0 313#9000000000000000 R
(1611284296.846624) can0 315#00000007FF000000 R
(1611284296.852132) can0 2D4#0000000010100000 R
(1611284296.853035) can0 353#029C01011BB46780 R
(1611284296.862709) can0 340#0000000000000000 R
(1611284296.872718) can0 330#0000000200000000 R
(1611284296.896605) can0 2E6#348A120000000000 R
(1611284296.897610) can0 2EC#321E341E32DA0000 R
(1611284296.898585) can0 2EF#348A348A33460100 R
(1611284296.899576) can0 2F2#0A12110E09494500 R
(1611284296.900632) can0 30F#0A0A0A0A0A060000 R
(1611284296.901645) can0 311#1F8A1F0A1F1F5331 R
(1611284296.902608) can0 353#029C01011BB46780 R
(1611284296.912161) can0 555#5C02000000000000 R
(1611284296.932714) can0 128#00F1000000000000 R
(1611284296.933685) can0 330#0000000200000000 R
(1611284296.936219) can0 2F5#101A547269706C65 R
(1611284296.937272) can0 2F6#300A000000000000 R
(1611284296.942584) can0 2FC#0000000003000046 R
(1611284296.946568) can0 2F5#21204D20524F434B R
(1611284296.952626) can0 353#029C01011BB46780 R
(1611284296.956660) can0 2F5#2253204D656C626F R
(1611284296.962713) can0 340#0000000000000000 R
(1611284296.967544) can0 2F5#2375726E65210300 R
(1611284296.992700) can0 330#0000000200000000 R
(1611284296.998322) can0 2F4#3000FFFFFFFC0000 R
(1611284296.999385) can0 2F9#0000000000000000 R
(1611284297.000376) can0 309#547269706C65204D R
(1611284297.001366) can0 30B#583A1073B203F858 R
(1611284297.002391) can0 30D#0000001540B60000 R
(1611284297.003325) can0 353#029C01011BB46780 R
(1611284297.012701) can0 55C#0102000000000000 R
(1611284297.032731) can0 128#00F1000000000000 R
(1611284297.034172) can0 409#2480524440914921 R
(1611284297.035121) can0 403#420400D7D7020100 R
(1611284297.036113) can0 406#0504000700000000 R
(1611284297.042607) can0 2FC#0000000003000046 R
(1611284297.043501) can0 6F6#15DB7A995C54193C R
(1611284297.052711) can0 330#0000000200000000 R
(1611284297.053624) can0 353#029C01011BB46880 R
(1611284297.062762) can0 340#0000000000000000 R
(1611284297.092600) can0 2E2#0000000000000000 R
(1611284297.093605) can0 313#9000000000000000 R
(1611284297.094619) can0 315#00000007FF000000 R
(1611284297.098984) can0 2E6#348A120000000000 R
(1611284297.099998) can0 2EC#321E341E32DA0000 R
(1611284297.100963) can0 2EF#348A348A33460100 R
(1611284297.101954) can0 2F2#0A12110E09494500 R
(1611284297.102945) can0 2D4#0000000010100000 R
(1611284297.103919) can0 30F#0A0A0A0A0A060000 R
(1611284297.104838) can0 353#029C01011BB46780 R
(1611284297.105781) can0 311#1F8A1F0A1F1F5331 R
(1611284297.106753) can0 501#0C02EE0000000000 R
(1611284297.112708) can0 330#0000000200000000 R
(1611284297.132716) can0 128#00F1000000000000 R
(1611284297.142618) can0 2FC#0000000003000046 R
(1611284297.152639) can0 353#029C01011BB46780 R
(1611284297.162741) can0 340#0000000000000000 R
(1611284297.172757) can0 330#0000000200000000 R
(1611284297.199499) can0 50C#1102EE0000000000 R
(1611284297.202690) can0 353#029C01011BB46780 R
(1611284297.232744) can0 128#00F1000000000000 R
(1611284297.233742) can0 330#0000000200000000 R
(1611284297.242633) can0 2FC#0000000003000046 R
(1611284297.252669) can0 353#029C01011BB46780 R
(1611284297.253664) can0 640#1000000000000000 R
(1611284297.262757) can0 340#0000000000000000 R
(1611284297.282660) can0 6F6#15DB7A995C54193C R
(1611284297.284466) can0 409#2480524440914921 R
(1611284297.292734) can0 330#0000000200000000 R
(1611284297.293677) can0 511#5502EE0000040400 R
(1611284297.302639) can0 2E6#348A120000000000 R
(1611284297.303552) can0 353#029C01011BB46780 R
(1611284297.304517) can0 2EC#321E341E32DA0000 R
(1611284297.305472) can0 2EF#348A348A33460100 R
(1611284297.306491) can0 2F2#0A12110E09494500 R
(1611284297.307507) can0 30F#0A0A0A0A0A060000 R
(1611284297.308522) can0 311#1F8A1F0A1F1F5331 R
(1611284297.309968) can0 360#0000000000000000 R
(1611284297.310989) can0 365#0000000000000000 R
(1611284297.332761) can0 128#00F1000000000000 R
(1611284297.342643) can0 2E2#0000000000000000 R
(1611284297.343653) can0 2FC#0000000003000046 R
(1611284297.344684) can0 307#0000008000000000 R
(1611284297.345707) can0 313#9000000000000000 R
(1611284297.346709) can0 315#00000007FF000000 R
(1611284297.352213) can0 2D4#0000000010100000 R
(1611284297.353198) can0 330#0000000200000000 R
(1611284297.354116) can0 353#029C01011BB46780 R
(1611284297.362773) can0 340#0000000000000000 R
(1611284297.392243) can0 555#5C02000000000000 R
(1611284297.402683) can0 353#029C01011BB46780 R
(1611284297.412753) can0 330#0000000200000000 R
(1611284297.432758) can0 128#00F1000000000000 R
(1611284297.442660) can0 2FC#0000000003000046 R
(1611284297.452677) can0 353#029C01011BB46780 R
(1611284297.462778) can0 340#0000000000000000 R
(1611284297.472764) can0 330#0000000200000000 R
(1611284297.492789) can0 55C#0102000000000000 R
(1611284297.502697) can0 353#029C01011BB46780 R
(1611284297.503668) can0 2E6#348A120000000000 R
(1611284297.504665) can0 2EC#321E341E32DA0000 R
(1611284297.505641) can0 2EF#348A348A33460100 R
(1611284297.506617) can0 2F2#0A12110E09494500 R
(1611284297.507709) can0 2F4#3000FFFFFFFC0000 R
(1611284297.508769) can0 2F9#0000000000000000 R
(1611284297.509738) can0 309#547269706C65204D R
(1611284297.510744) can0 30B#583A1073B203F858 R
(1611284297.511783) can0 30D#0000001540B60000 R
(1611284297.512853) can0 30F#0A0A0A0A0A060000 R
(1611284297.513847) can0 311#1F8A1F0A1F1F5331 R
(1611284297.514839) can0 317#5739453836313031 R
(1611284297.515935) can0 6FC#0000000000000000 R
(1611284297.522718) can0 6F6#15AE0FEC29206C49 R
(1611284297.532804) can0 128#00F1000000000000 R
(1611284297.533790) can0 330#0000000200000000 R
(1611284297.534741) can0 409#2480524440914921 R
(1611284297.535691) can0 403#420400D7D7020100 R
(1611284297.536683) can0 406#0504000700000000 R
(1611284297.542692) can0 2FC#0000000003000046 R
(1611284297.552705) can0 353#029C01011BB46780 R
(1611284297.562788) can0 340#0000000000000000 R
(1611284297.584889) can0 501#0C02EE0000000000 R
(1611284297.592668) can0 2E2#0000000000000000 R
(1611284297.593657) can0 330#0000000200000000 R
(1611284297.594639) can0 313#8F00000000000000 R
(1611284297.595654) can0 315#00000007FF000000 R
(1611284297.602263) can0 2D4#0000000010100000 R
(1611284297.603191) can0 353#029C01011BB46780 R
(1611284297.632793) can0 128#00F1000000000000 R
(1611284297.642686) can0 2FC#0000000003000046 R
(1611284297.652776) can0 330#0000000200000000 R
(1611284297.653710) can0 353#029C01011BB46780 R
(1611284297.662796) can0 340#0000000000000000 R
(1611284297.682891) can0 50C#1102EE0000000000 R
(1611284297.701974) can0 2E6#348A120000000000 R
(1611284297.702884) can0 353#029C01011BB46780 R
(1611284297.703828) can0 2EC#321E341E32DA0000 R
(1611284297.704804) can0 2EF#348A348A33460100 R
(1611284297.705796) can0 2F2#0A12110E09494500 R
(1611284297.706852) can0 30F#0A0A0A0A0A060000 R
(1611284297.707899) can0 311#1F8A1F0A1F1F5331 R
(1611284297.712810) can0 330#0000000200000000 R
(1611284297.732820) can0 128#00F1000000000000 R
(1611284297.742706) can0 2FC#0000000003000046 R
(1611284297.752759) can0 353#029C01011BB46780 R
(1611284297.762814) can0 340#0000000000000000 R
(1611284297.763726) can0 6F6#15AE0FEC29206C49 R
(1611284297.772804) can0 330#0000000200000000 R
(1611284297.782814) can0 511#5502EE0000040400 R
(1611284297.785014) can0 409#2480524440914921 R
(1611284297.802741) can0 353#029C01011BB46780 R
(1611284297.821414) can0 360#0000000000000000 R
(1611284297.822396) can0 365#0000000000000000 R
(1611284297.832834) can0 128#00F1000000000000 R
(1611284297.833809) can0 330#0000000200000000 R
(1611284297.842722) can0 2E2#0000000000000000 R
(1611284297.843724) can0 2FC#0000000003000046 R
(1611284297.844755) can0 307#0000008000000000 R
(1611284297.845762) can0 313#8E00000000000000 R
(1611284297.846797) can0 315#00000007FF000000 R
(1611284297.852315) can0 2D4#0000000010100000 R
(1611284297.853228) can0 353#029C01011BB46780 R
(1611284297.862850) can0 340#0000000000000000 R
(1611284297.872353) can0 555#5C02000000000000 R
(1611284297.892868) can0 330#0000000200000000 R
(1611284297.902551) can0 2E6#348A120000000000 R
(1611284297.903452) can0 353#029C01011BB46780 R
(1611284297.904405) can0 2EC#321E341E32DA0000 R
(1611284297.905370) can0 2EF#348A348A33460100 R
(1611284297.906361) can0 2F2#0A12110E09494500 R
(1611284297.907417) can0 30F#0A0A0A0A0A060000 R
(1611284297.908462) can0 311#1F8A1F0A1F1F5331 R
(1611284297.932849) can0 128#00F1000000000000 R
(1611284297.942769) can0 2FC#0000000003000046 R
(1611284297.952853) can0 330#0000000200000000 R
(1611284297.953834) can0 340#0000000000000000 R
(1611284297.954761) can0 353#029C01011BB46780 R
(1611284297.972893) can0 55C#0102000000000000 R
(1611284298.002777) can0 353#029C01011BB46780 R
(1611284298.003685) can0 6F6#15AE0FEC29206C49 R
(1611284298.004691) can0 2F4#3000FFFFFFFC0000 R
(1611284298.005763) can0 2F9#0000000000000000 R
(1611284298.006728) can0 309#547269706C65204D R
(1611284298.007732) can0 30B#583A1073B203F858 R
(1611284298.008771) can0 30D#0000001540B60000 R
(1611284298.012841) can0 330#0000000200000000 R
(1611284298.032839) can0 128#00F1000000000000 R
(1611284298.035305) can0 409#2480524440914921 R
(1611284298.036253) can0 403#420400D7D7020100 R
(1611284298.037263) can0 406#0504000700000000 R
(1611284298.042771) can0 2FC#0000000003000046 R
(1611284298.052772) can0 353#029C01011BB46780 R
(1611284298.062856) can0 340#0000000000000000 R
(1611284298.065483) can0 501#0C02EE0000000000 R
(1611284298.072858) can0 330#0000000200000000 R
(1611284298.092764) can0 2E2#0000000000000000 R
(1611284298.093772) can0 313#8E00000000000000 R
(1611284298.094784) can0 315#00000007FF000000 R
(1611284298.102396) can0 2D4#0000000010100000 R
(1611284298.103330) can0 2E6#348A120000000000 R
(1611284298.104253) can0 353#029C01011BB46780 R
(1611284298.105190) can0 2EC#321E341E32DA0000 R
(1611284298.106166) can0 2EF#348A348A33460100 R
(1611284298.107158) can0 2F2#0A12110E09494500 R
(1611284298.108212) can0 30F#0A0A0A0A0A060000 R
(1611284298.109227) can0 311#1F8A1F0A1F1F5331 R
(1611284298.132880) can0 128#00F1000000000000 R
(1611284298.133864) can0 330#0000000200000000 R
(1611284298.142785) can0 2FC#0000000003000046 R
(1611284298.152873) can0 340#0000000000000000 R
(1611284298.153791) can0 353#029C01011BB46780 R
(1611284298.164166) can0 50C#1102EE0000000000 R
(1611284298.192893) can0 330#0000000200000000 R
(1611284298.202814) can0 353#029C01011BB46780 R
(1611284298.232896) can0 128#00F1000000000000 R
(1611284298.242806) can0 2FC#0000000003000046 R
(1611284298.243806) can0 640#1000000000000000 R
(1611284298.244724) can0 6F6#15AE0FEC29206C49 R
(1611284298.252887) can0 330#0000000200000000 R
(1611284298.253894) can0 340#0000000000000000 R
(1611284298.254812) can0 353#029C01011BB46780 R
(1611284298.262905) can0 511#5502EE0000040400 R
(1611284298.285548) can0 409#2480524440914921 R
(1611284298.302839) can0 353#029C01011BB46780 R
(1611284298.303788) can0 2E6#348A120000000000 R
(1611284298.304786) can0 2EC#321E341E32DA0000 R
(1611284298.305761) can0 2EF#348A348A33460100 R
(1611284298.306769) can0 2F2#0A12110E09494500 R
(1611284298.307823) can0 30F#0A0A0A0A0A060000 R
(1611284298.308839) can0 311#1F8A1F0A1F1F5331 R
(1611284298.312874) can0 330#0000000200000000 R
(1611284298.332898) can0 128#00F1000000000000 R
(1611284298.333896) can0 360#0000000000000000 R
(1611284298.334901) can0 365#0000000000000000 R
(1611284298.342801) can0 2E2#0000000000000000 R
(1611284298.343823) can0 2FC#0000000003000046 R
(1611284298.344854) can0 307#0000008000000000 R
(1611284298.345868) can0 313#8F00000000000000 R
(1611284298.346883) can0 315#00000007FF000000 R
(1611284298.352406) can0 2D4#0000000010100000 R
(1611284298.353403) can0 340#0000000000000000 R
(1611284298.354331) can0 353#029C01011BB46780 R
(1611284298.355289) can0 555#5C02000000000000 R
(1611284298.372880) can0 330#0000000200000000 R
(1611284298.402823) can0 353#029C01011BB46780 R
(1611284298.432947) can0 128#00F1000000000000 R
(1611284298.433902) can0 330#0000000200000000 R
(1611284298.442822) can0 2FC#0000000003000046 R
(1611284298.452903) can0 340#0000000000000000 R
(1611284298.453835) can0 353#029C01011BB46780 R
(1611284298.454822) can0 55C#0102000000000000 R
(1611284298.482857) can0 6F6#15BD1CFF3A327F5A R
(1611284298.492907) can0 330#0000000200000000 R
(1611284298.502869) can0 353#029C01011BB46780 R
(1611284298.503811) can0 2E6#348A120000000000 R
(1611284298.504808) can0 2EC#321E341E32DA0000 R
(1611284298.505774) can0 2EF#348A348A33460100 R
(1611284298.506772) can0 2F2#0A12110E09494500 R
(1611284298.507841) can0 2F4#3000FFFFFFFC0000 R
(1611284298.508914) can0 2F9#0000000000000000 R
(1611284298.509889) can0 309#547269706C65204D R
(1611284298.510881) can0 30B#583A1073B203F858 R
(1611284298.511920) can0 30D#0000001540B60000 R
(1611284298.512967) can0 30F#0A0A0A0A0A060000 R
(1611284298.513990) can0 311#1F8A1F0A1F1F5331 R
(1611284298.514990) can0 317#5739453836313031 R
(1611284298.516070) can0 6FC#0000000000000000 R
(1611284298.532928) can0 128#00F1000000000000 R
(1611284298.535900) can0 409#2480524440914921 R
(1611284298.536848) can0 403#420400D7D7020100 R
(1611284298.537838) can0 406#0504000700000000 R
(1611284298.542848) can0 2FC#0000000003000046 R
(1611284298.546143) can0 501#0C02EE0000000000 R
(1611284298.552913) can0 330#0000000200000000 R
(1611284298.553921) can0 340#0000000000000000 R
(1611284298.554836) can0 353#029C01011BB46780 R
(1611284298.592852) can0 2E2#0000000000000000 R
(1611284298.593869) can0 313#8E00000000000000 R
(1611284298.594891) can0 315#00000007FF000000 R
(1611284298.602464) can0 2D4#0000000010100000 R
(1611284298.603381) can0 353#029C01011BB46780 R
(1611284298.612924) can0 330#0000000200000000 R
(1611284298.632967) can0 128#00F1000000000000 R
(1611284298.642857) can0 2FC#0000000003000046 R
(1611284298.644283) can0 50C#1102EE0000000000 R
(1611284298.652928) can0 340#0000000000000000 R
(1611284298.653857) can0 353#029C01011BB46780 R
(1611284298.672947) can0 330#0000000200000000 R
(1611284298.702863) can0 353#029C01011BB46780 R
(1611284298.703831) can0 2E6#348A120000000000 R
(1611284298.704828) can0 2EC#321E341E32DA0000 R
(1611284298.705803) can0 2EF#348A348A33460100 R
(1611284298.706811) can0 2F2#0A12110E09494500 R
(1611284298.707865) can0 30F#0A0A0A0A0A060000 R
(1611284298.708882) can0 311#1F8A1F0A1F1F5331 R
(1611284298.722859) can0 6F6#15BD1CFF3A327F5A R
(1611284298.732947) can0 128#00F1000000000000 R
(1611284298.733948) can0 330#0000000200000000 R
(1611284298.742873) can0 2FC#0000000003000046 R
(1611284298.743836) can0 511#5502EE0000040400 R
(1611284298.752956) can0 340#0000000000000000 R
(1611284298.753875) can0 353#029C01011BB46780 R
(1611284298.786133) can0 409#2480524440914921 R
(1611284298.792938) can0 330#0000000200000000 R
(1611284298.802876) can0 353#029C01011BB46780 R
(1611284298.832500) can0 555#5C02000000000000 R
(1611284298.833493) can0 128#00F1000000000000 R
(1611284298.842887) can0 2E2#0000000000000000 R
(1611284298.843912) can0 2FC#0000000003000046 R
(1611284298.844939) can0 360#0000000000000000 R
(1611284298.845906) can0 307#0000008000000000 R
(1611284298.846896) can0 365#0000000000000000 R
(1611284298.847873) can0 313#8E00000000000000 R
(1611284298.848922) can0 315#00000007FF000000 R
(1611284298.852488) can0 2D4#0000000010100000 R
(1611284298.853481) can0 330#0000000200000000 R
(1611284298.854482) can0 340#0000000000000000 R
(1611284298.855398) can0 353#029C01011BB46780 R
(1611284298.902885) can0 353#029C01011BB46780 R
(1611284298.907972) can0 2E6#348A120000000000 R
(1611284298.908980) can0 2EC#321E341E32DA0000 R
(1611284298.909955) can0 2EF#348A348A33460100 R
(1611284298.910947) can0 2F2#0A12110E09494500 R
(1611284298.912002) can0 30F#0A0A0A0A0A060000 R
(1611284298.912994) can0 330#0000000200000000 R
(1611284298.913936) can0 311#1F8A1F0A1F1F5331 R
(1611284298.932968) can0 128#00F1000000000000 R
(1611284298.933951) can0 55C#0102000000000000 R
(1611284298.942904) can0 2FC#0000000003000046 R
(1611284298.952971) can0 340#0000000000000000 R
(1611284298.953882) can0 353#029C01011BB46780 R
(1611284298.962914) can0 6F6#15BD1CFF3A327F5A R
(1611284298.972966) can0 330#0000000200000000 R
(1611284299.002896) can0 353#029C01011BB46780 R
(1611284299.008020) can0 2F4#3000FFFFFFFC0000 R
(1611284299.009099) can0 2F9#0000000000000000 R
(1611284299.010073) can0 309#547269706C65204D R
(1611284299.011064) can0 30B#583A1073B203F858 R
(1611284299.012102) can0 30D#0000001540B60000 R
(1611284299.026532) can0 501#0C02EE0000000000 R
(1611284299.032989) can0 128#00F1000000000000 R
(1611284299.033985) can0 330#0000000200000000 R
(1611284299.036551) can0 409#2480524440914921 R
(1611284299.037500) can0 403#420400D7D7020100 R
(1611284299.038490) can0 406#0504000700000000 R
(1611284299.042910) can0 2FC#0000000003000046 R
(1611284299.052976) can0 340#0000000000000000 R
(1611284299.053903) can0 353#029C01011BB46780 R
(1611284299.092943) can0 2E2#0000000000000000 R
(1611284299.093937) can0 330#0000000200000000 R
(1611284299.094911) can0 313#8E00000000000000 R
(1611284299.095926) can0 315#00000007FF000000 R
(1611284299.102532) can0 2D4#0000000010100000 R
(1611284299.103464) can0 353#029C01011BB46780 R
(1611284299.107698) can0 2E6#348A120000000000 R
(1611284299.108694) can0 2EC#321E341E32DA0000 R
(1611284299.109670) can0 2EF#348A348A33460100 R
(1611284299.110659) can0 2F2#0A12110E09494500 R
(1611284299.111714) can0 30F#0A0A0A0A0A060000 R
(1611284299.112729) can0 311#1F8A1F0A1F1F5331 R
(1611284299.113784) can0 50C#1102EE0000000000 R
(1611284299.133005) can0 128#00F1000000000000 R
(1611284299.142949) can0 2FC#0000000003000046 R
(1611284299.153017) can0 330#0000000200000000 R
(1611284299.154005) can0 340#0000000000000000 R
(1611284299.154923) can0 353#029C01011BB46780 R
(1611284299.202922) can0 353#029C01011BB46780 R
(1611284299.203825) can0 6F6#15BD1CFF3A327F5A R
(1611284299.213008) can0 330#0000000200000000 R
(1611284299.213965) can0 511#5502EE0000040400 R
(1611284299.233009) can0 128#00F1000000000000 R
(1611284299.234021) can0 640#1000000000000000 R
(1611284299.243079) can0 2FC#0000000003000046 R
(1611284299.253003) can0 340#0000000000000000 R
(1611284299.253922) can0 353#029C01011BB46780 R
(1611284299.273005) can0 330#0000000200000000 R
(1611284299.286702) can0 409#2480524440914921 R
(1611284299.302937) can0 353#029C01011BB46780 R
(1611284299.310780) can0 2E6#348A120000000000 R
(1611284299.311776) can0 2EC#321E341E32DA0000 R
(1611284299.312747) can0 555#5C02000000000000 R
(1611284299.313694) can0 2EF#348A348A33460100 R
(1611284299.314655) can0 2F2#0A12110E09494500 R
(1611284299.315710) can0 30F#0A0A0A0A0A060000 R
(1611284299.316725) can0 311#1F8A1F0A1F1F5331 R
(1611284299.333022) can0 128#00F1000000000000 R
(1611284299.334007) can0 330#0000000200000000 R
(1611284299.343007) can0 2E2#0000000000000000 R
(1611284299.344020) can0 2FC#0000000003000046 R
(1611284299.345042) can0 307#0000008000000000 R
(1611284299.346050) can0 313#8D00000000000000 R
(1611284299.347055) can0 315#00000007FF000000 R
(1611284299.352569) can0 2D4#0000000010100000 R
(1611284299.353565) can0 340#0000000000000000 R
(1611284299.354483) can0 353#029C01011BB46780 R
(1611284299.355925) can0 360#0000000000000000 R
(1611284299.356953) can0 365#0000000000000000 R
(1611284299.393032) can0 330#0000000200000000 R
(1611284299.402994) can0 353#029C01011BB46780 R
(1611284299.413081) can0 55C#0102000000000000 R
(1611284299.433036) can0 128#00F1000000000000 R
(1611284299.443012) can0 2FC#0000000003000046 R
(1611284299.443896) can0 6F6#158021C2070F4267 R
(1611284299.453031) can0 330#0000000200000000 R
(1611284299.454037) can0 340#0000000000000000 R
(1611284299.454956) can0 353#029C01011BB46780 R
(1611284299.502980) can0 353#029C01011BB46780 R
(1611284299.507089) can0 501#0C02EE0000000000 R
(1611284299.513050) can0 2E6#348A120000000000 R
(1611284299.514034) can0 330#0000000200000000 R
(1611284299.514980) can0 2EC#321E341E32DA0000 R
(1611284299.515962) can0 2EF#348A348A33460100 R
(1611284299.516955) can0 2F2#0A12110E09494500 R
(1611284299.518021) can0 2F4#3000FFFFFFFC0000 R
(1611284299.519093) can0 2F9#0000000000000000 R
(1611284299.520064) can0 309#547269706C65204D R
(1611284299.521060) can0 30B#583A1073B203F858 R
(1611284299.522098) can0 30D#0000001540B60000 R
(1611284299.523150) can0 30F#0A0A0A0A0A060000 R
(1611284299.524168) can0 311#1F8A1F0A1F1F5331 R
(1611284299.525159) can0 317#5739453836313031 R
(1611284299.526236) can0 6FC#0000000000000000 R
(1611284299.533053) can0 128#00F1000000000000 R
(1611284299.537026) can0 409#2480524440914921 R
(1611284299.537988) can0 403#420400D7D7020100 R
(1611284299.538983) can0 406#0504000700000000 R
(1611284299.543020) can0 2FC#0000000003000046 R
(1611284299.553057) can0 340#0000000000000000 R
(1611284299.553972) can0 353#029C01011BB46780 R
(1611284299.573053) can0 330#0000000200000000 R
(1611284299.593021) can0 2E2#0000000000000000 R
(1611284299.593990) can0 50C#1102EE0000000000 R
(1611284299.594963) can0 313#8E00000000000000 R
(1611284299.595995) can0 315#00000007FF000000 R
(1611284299.602653) can0 2D4#0000000010100000 R
(1611284299.603532) can0 353#029C01011BB46780 R
(1611284299.633054) can0 128#00F1000000000000 R
(1611284299.634039) can0 330#0000000200000000 R
(1611284299.643022) can0 2FC#0000000003000046 R
(1611284299.653087) can0 340#0000000000000000 R
(1611284299.653979) can0 353#029C01011BB46780 R
(1611284299.682998) can0 6F6#158021C2070F4267 R
(1611284299.693061) can0 330#0000000200000000 R
(1611284299.694010) can0 511#5502EE0000040400 R
(1611284299.702992) can0 353#029C01011BB46780 R
(1611284299.713592) can0 2E6#348A120000000000 R
(1611284299.714587) can0 2EC#321E341E32DA0000 R
(1611284299.715562) can0 2EF#348A348A33460100 R
(1611284299.716553) can0 2F2#0A12110E09494500 R
(1611284299.717616) can0 30F#0A0A0A0A0A060000 R
(1611284299.718632) can0 311#1F8A1F0A1F1F5331 R
(1611284299.733094) can0 128#00F1000000000000 R
(1611284299.743032) can0 2FC#0000000003000046 R
(1611284299.753062) can0 330#0000000200000000 R
(1611284299.754062) can0 340#0000000000000000 R
(1611284299.754982) can0 353#029C01011BB46780 R
(1611284299.787250) can0 409#2480524440914921 R
(1611284299.792667) can0 555#5C02000000000000 R
(1611284299.803003) can0 353#029C01011BB46780 R
(1611284299.813126) can0 330#0000000200000000 R
(1611284299.833087) can0 128#00F1000000000000 R
(1611284299.843061) can0 2E2#0000000000000000 R
(1611284299.844065) can0 2FC#0000000003000046 R
(1611284299.845088) can0 307#0000008000000000 R
(1611284299.846097) can0 313#8E00000000000000 R
(1611284299.847127) can0 315#00000007FF000000 R
(1611284299.852669) can0 2D4#0000000010100000 R
(1611284299.853666) can0 340#0000000000000000 R
(1611284299.854584) can0 353#029C01011BB46880 R
(1611284299.867307) can0 360#0000000000000000 R
(1611284299.868293) can0 365#0000000000000000 R
(1611284299.873082) can0 330#0000000200000000 R
(1611284299.893150) can0 55C#0102000000000000 R
(1611284299.903015) can0 353#029C01011BB46780 R
(1611284299.916060) can0 2E6#348A120000000000 R
(1611284299.917051) can0 2EC#321E341E32DA0000 R
(1611284299.918025) can0 2EF#348A348A33460100 R
(1611284299.919015) can0 2F2#0A12110E09494500 R
(1611284299.920071) can0 30F#0A0A0A0A0A060000 R
(1611284299.921086) can0 311#1F8A1F0A1F1F5331 R
(1611284299.923006) can0 6F6#158021C2070F4267 R
(1611284299.933102) can0 128#00F1000000000000 R
(1611284299.934099) can0 330#0000000200000000 R
(1611284299.943081) can0 2FC#0000000003000046 R
(1611284299.953121) can0 340#0000000000000000 R
(1611284299.954052) can0 353#029C01011BB46780 R
(1611284299.987625) can0 501#0C02EE0000000000 R
(1611284299.993102) can0 330#0000000200000000 R
(1611284300.003054) can0 353#029C01011BB46780 R
(1611284300.017301) can0 2F4#3000FFFFFFFC0000 R
(1611284300.018508) can0 2F9#0000000000000000 R
(1611284300.019481) can0 309#547269706C65204D R
(1611284300.020471) can0 30B#583A1073B203F858 R
(1611284300.021510) can0 30D#0000001540B60000 R
(1611284300.033166) can0 128#00F1000000000000 R
(1611284300.037612) can0 409#2480524440914921 R
(1611284300.038560) can0 403#420400D7D7020100 R
(1611284300.039550) can0 406#0504000700000000 R
(1611284300.043124) can0 2FC#0000000003000046 R
(1611284300.053132) can0 330#0000000200000000 R
(1611284300.054146) can0 340#0000000000000000 R
(1611284300.055060) can0 353#029C01011BB46780 R
(1611284300.078374) can0 50C#1102EE0000000000 R
(1611284300.093103) can0 2E2#0000000000000000 R
(1611284300.094114) can0 313#8F00000000000000 R
(1611284300.095143) can0 315#00000007FF000000 R
(1611284300.102706) can0 2D4#0000000010100000 R
(1611284300.103633) can0 353#029C01011BB46780 R
(1611284300.113122) can0 330#0000000600000000 R
(1611284300.117453) can0 2E6#348A120000000000 R
(1611284300.118470) can0 2EC#321E341E32DA0000 R
(1611284300.119443) can0 2EF#348A348A33460100 R
(1611284300.120433) can0 2F2#0A12110E09494500 R
(1611284300.121488) can0 30F#0A0A0A0A0A060000 R
(1611284300.122503) can0 311#1F8A1F0A1F1F5331 R
(1611284300.133125) can0 128#00F1000000000000 R
(1611284300.143104) can0 2FC#0000000003000046 R
(1611284300.153126) can0 340#0000000000000000 R
(1611284300.154073) can0 353#029C01011BB46680 R
(1611284300.163051) can0 6F6#158021C2070F4267 R
(1611284300.173161) can0 330#0000000800000000 R
(1611284300.174119) can0 511#5502EE0000040400 R
(1611284300.203080) can0 353#029C01011BB44180 R
(1611284300.233170) can0 128#00F1000000000000 R
(1611284300.234175) can0 330#0000000800000000 R
(1611284300.235180) can0 640#1000000000000000 R
(1611284300.243136) can0 2FC#0000000003000046 R
(1611284300.253091) can0 353#029C01011BB44880 R
(1611284300.272791) can0 555#5C02000000000000 R
(1611284300.287869) can0 409#2480524440914921 R
(1611284300.293193) can0 330#0000000800000000 R
(1611284300.303092) can0 353#029C01011BB44E80 R
(1611284300.333164) can0 128#00F1000000000000 R
(1611284300.343113) can0 2E2#0000000000000000 R
(1611284300.344131) can0 2FC#0000000003000046 R
(1611284300.345153) can0 307#0000008000000000 R
(1611284300.346169) can0 313#8F00000000000000 R
(1611284300.347199) can0 315#00000007FF000000 R
(1611284300.352755) can0 2D4#0000000010100000 R
(1611284300.353749) can0 330#0000000800000000 R
(1611284300.354676) can0 353#029C01011BB45080 R
(1611284300.373242) can0 55C#0102000000000000 R
(1611284300.378761) can0 360#0000000000000000 R
(1611284300.379754) can0 365#0000000000000000 R
(1611284300.403091) can0 353#029C01011BB45180 R
(1611284300.404597) can0 6F6#158021C2070F4267 R
(1611284300.413201) can0 330#0000000800000000 R
(1611284300.433192) can0 128#00F1000000000000 R
(1611284300.443179) can0 2FC#0000000003000046 R
(1611284300.453190) can0 340#0000000000000000 R
(1611284300.454131) can0 353#029C01011BB44F80 R
(1611284300.468185) can0 501#0C02EE0000000000 R
(1611284300.473205) can0 330#0000000800000000 R
(1611284300.503249) can0 353#029C01011BB54980 R
(1611284300.533209) can0 128#00F1000000000000 R
(1611284300.534193) can0 330#018D000800000000 R
(1611284300.538240) can0 409#2480524440914921 R
(1611284300.539185) can0 403#420400D7D7020100 R
(1611284300.540173) can0 406#0504000700000000 R
(1611284300.543189) can0 2FC#0000000003000046 R
(1611284300.553215) can0 340#0000000000000000 R
(1611284300.554133) can0 353#029C01011BB54F80 R
(1611284300.593205) can0 2E2#0000000000000000 R
(1611284300.594179) can0 330#018D000800000000 R
(1611284300.595160) can0 313#8F00000000000000 R
(1611284300.596179) can0 315#00000007FF000000 R
(1611284300.602827) can0 2D4#0000000010100000 R
(1611284300.604748) can0 353#029C01011BB55580 R
(1611284300.633192) can0 128#00F1000000000000 R
(1611284300.643174) can0 2FC#0000000003000046 R
(1611284300.644077) can0 6F6#15A036D539732EC2 R
(1611284300.653202) can0 330#0161000800000000 R
(1611284300.654183) can0 340#0000000000000000 R
(1611284300.655113) can0 353#029C01011BB55580 R
(1611284300.703139) can0 353#029C01011BB55680 R
(1611284300.713220) can0 330#0161000800000000 R
(1611284300.728519) can0 501#0101000000000000 R
(1611284300.732861) can0 555#5501000000000000 R
(1611284300.733854) can0 128#00F1000000000000 R
(1611284300.734830) can0 55C#5C01000000000000 R
(1611284300.743206) can0 2FC#0000000003000046 R
(1611284300.753240) can0 340#0000000000000000 R
(1611284300.754150) can0 353#029C01011BB55980 R
(1611284300.773241) can0 330#0161000800000000 R
(1611284300.774194) can0 511#1101000000040400 R
(1611284300.788409) can0 409#2480524440914921 R
(1611284300.803169) can0 353#029C01011BB55680 R
(1611284300.828614) can0 501#1102000000000000 R
(1611284300.833321) can0 128#00F1000000000000 R
(1611284300.834274) can0 330#01D4000800000000 R
(1611284300.843215) can0 2E2#0000000000000000 R
(1611284300.844224) can0 2FC#0000000003000046 R
(1611284300.845257) can0 307#0000008000000000 R
(1611284300.846272) can0 313#8F00000000000000 R
(1611284300.847296) can0 315#00000007FF000000 R
(1611284300.852832) can0 2D4#0000000010100000 R
(1611284300.853844) can0 340#0000000000000000 R
(1611284300.854758) can0 353#029C01011BB55980 R
(1611284300.855728) can0 50C#0C01000000000000 R
(1611284300.883148) can0 6F6#15A036D539732EC2 R
(1611284300.890237) can0 360#0000000000000000 R
(1611284300.891248) can0 365#0000000000000000 R
(1611284300.893222) can0 330#021D000800000000 R
(1611284300.903179) can0 353#029C01011BB55B80 R
(1611284300.923307) can0 511#0102000000040400 R
(1611284300.932897) can0 555#5C01000000000000 R
(1611284300.933906) can0 128#00F1000000000000 R
(1611284300.934897) can0 55C#0101000000000000 R
(1611284300.943253) can0 2FC#0000000003000046 R
(1611284300.953247) can0 330#021D000800000000 R
(1611284300.954249) can0 340#0000000000000000 R
(1611284300.955164) can0 353#029C01011BB55C80 R
(1611284301.003208) can0 353#029C01011BB55E80 R
(1611284301.008809) can0 501#0C02EE0000000000 R
(1611284301.013252) can0 330#02E5000800000000 R
(1611284301.033269) can0 128#00F1000000000000 R
(1611284301.038754) can0 409#2480524440914921 R
(1611284301.039698) can0 403#420400D7D7020100 R
(1611284301.040689) can0 406#0504000700000000 R
(1611284301.043234) can0 2FC#0000000003000046 R
(1611284301.053338) can0 340#0000000000000000 R
(1611284301.054255) can0 353#029C01011BB56080 R
(1611284301.073259) can0 330#087F000800000000 R
(1611284301.093302) can0 2E2#0000000000000000 R
(1611284301.094278) can0 313#8F00000000000000 R
(1611284301.095299) can0 315#00000007FF000000 R
(1611284301.102917) can0 2D4#0000000010100000 R
(1611284301.103814) can0 353#029C01011BB56280 R
(1611284301.114978) can0 2E6#348A020000000000 R
(1611284301.115959) can0 2EC#321E341E32DA0000 R
(1611284301.116933) can0 2EF#348A348A33460100 R
(1611284301.117925) can0 2F2#0A12110E09494800 R
(1611284301.118996) can0 2F4#3000FFFFFFFC0000 R
(1611284301.120066) can0 2F9#0000000000000000 R
(1611284301.121098) can0 309#2020202020202020 R
(1611284301.122144) can0 30B#0000020000030800 R
(1611284301.123225) can0 30D#0000001540B60000 R
(1611284301.124193) can0 2FC#0000000000000046 R
(1611284301.125167) can0 30F#0A0A0A0A0A060000 R
(1611284301.126070) can0 6F6#15A036D539732EC2 R
(1611284301.127007) can0 311#1F8A1F0A1F1F0321 R
(1611284301.128008) can0 317#5739453836313031 R
(1611284301.129053) can0 50C#1102EE0000000000 R
(1611284301.130139) can0 6FC#0000000000000000 R
(1611284301.133289) can0 128#00F1000000000000 R
(1611284301.134275) can0 330#0C7A000800000000 R
(1611284301.153290) can0 340#0000000000000000 R
(1611284301.154287) can0 2FC#0000000000000046 R
(1611284301.155212) can0 353#029C01011BB56180 R
(1611284301.193287) can0 330#11B7000800000000 R
(1611284301.203220) can0 353#029C01011BB56480 R
(1611284301.223305) can0 640#1000000000000000 R
(1611284301.224248) can0 511#5502EE0000040400 R
(1611284301.233290) can0 128#00F1000000000000 R
(1611284301.243304) can0 2FC#0000000000000046 R
(1611284301.253276) can0 330#13E2000800000000 R
(1611284301.254274) can0 340#0000000000000000 R
(1611284301.255196) can0 353#029C01011BB56380 R
(1611284301.288983) can0 409#2480524440914921 R
(1611284301.303230) can0 353#029C01011BB56B80 R
(1611284301.313013) can0 555#5C12000000000000 R
(1611284301.313986) can0 330#16A8000000000000 R
(1611284301.328891) can0 2E6#348A020000000000 R
(1611284301.329902) can0 2EC#321E341E32DA0000 R
(1611284301.330876) can0 2EF#348A348A33460100 R
(1611284301.331859) can0 2F2#0A12110E09494800 R
(1611284301.332913) can0 30F#0A0A0A0A0A060000 R
(1611284301.333912) can0 128#00F1000000000000 R
(1611284301.334855) can0 311#1F8A1F0A1F1F0321 R
(1611284301.343330) can0 2E2#0000000000000000 R
(1611284301.344363) can0 2FC#0000000000000046 R
(1611284301.345371) can0 307#0000008000000000 R
(1611284301.346417) can0 313#8F00000000000000 R
(1611284301.347418) can0 315#00000007FF000000 R
(1611284301.352990) can0 2D4#0000000010100000 R
(1611284301.353981) can0 340#0000000000000000 R
(1611284301.354911) can0 353#029C01011BB56A80 R
(1611284301.363253) can0 6F6#15A036D539732EC2 R
(1611284301.373360) can0 330#1794000000000000 R
(1611284301.401824) can0 360#0000000000000000 R
(1611284301.402815) can0 365#0000000000000000 R
(1611284301.403747) can0 353#029C01011BB56B80 R
(1611284301.413999) can0 55C#0102000000000000 R
(1611284301.433328) can0 128#00F1000000000000 R
(1611284301.434315) can0 330#1803000000000000 R
(1611284301.443315) can0 2FC#0000000000000046 R
(1611284301.453312) can0 340#0000000000000000 R
(1611284301.454219) can0 353#029C01011BB56B80 R
(1611284301.493393) can0 330#182D000000000000 R
(1611284301.503248) can0 353#029C01011BB56C80 R
(1611284301.509361) can0 501#0C02EE0000000000 R
(1611284301.533341) can0 128#00F1000000000000 R
(1611284301.539323) can0 409#2480524440914921 R
(1611284301.540259) can0 403#420400D7D7020100 R
(1611284301.541251) can0 406#0504000700000000 R
(1611284301.543340) can0 2FC#0000000000000046 R
(1611284301.553322) can0 330#1811000000000000 R
(1611284301.554250) can0 2F2#0A12110E09494500 R
(1611284301.555247) can0 340#0000000000000000 R
(1611284301.556176) can0 353#029C01011BB56C80 R
(1611284301.564194) can0 2E6#348A020000000000 R
(1611284301.565199) can0 2EC#321E341E32DA0000 R
(1611284301.566163) can0 2EF#348A348A33460100 R
(1611284301.567209) can0 30F#0A0A0A0A0A060000 R
(1611284301.568223) can0 311#1F8A1F0A1F1F0321 R
(1611284301.573347) can0 2FC#0000000003000046 R
(1611284301.574442) can0 2F2#0A12110E09494500 R
(1611284301.593366) can0 2E2#0000000000000000 R
(1611284301.594372) can0 313#8F00000000000000 R
(1611284301.595387) can0 315#00000007FF000000 R
(1611284301.602974) can0 2D4#0000000010100000 R
(1611284301.603909) can0 353#029C01011BB56F80 R
(1611284301.604833) can0 6F6#1541DB38FF63E414 R
(1611284301.613331) can0 330#16EF000000000000 R
(1611284301.616670) can0 50C#1102EE0000000000 R
(1611284301.633340) can0 128#00F1000000000000 R
(1611284301.643345) can0 2FC#0000000003000046 R
(1611284301.653342) can0 340#0000000000000000 R
(1611284301.654260) can0 353#029C01011BB57080 R
(1611284301.665847) can0 2F4#3000FFFFFFFC0000 R
(1611284301.666899) can0 2F9#0000000000000000 R
(1611284301.667965) can0 309#2020202020202020 R
(1611284301.668985) can0 30B#0000020000030800 R
(1611284301.670028) can0 30D#0000001540B60000 R
(1611284301.673331) can0 330#168E000000000000 R
(1611284301.703281) can0 353#029C01011BB57480 R
(1611284301.713431) can0 511#5502EE0000040400 R
(1611284301.733373) can0 128#00F1000000000000 R
(1611284301.734340) can0 330#15A6000200000000 R
(1611284301.743390) can0 2FC#0000000003000046 R
(1611284301.753382) can0 340#0000000000000000 R
(1611284301.754298) can0 353#029C01011BB57680 R
(1611284301.768022) can0 2E6#348A020000000000 R
(1611284301.769020) can0 2EC#321E341E32DA0000 R
(1611284301.769985) can0 2EF#348A348A33460100 R
(1611284301.770991) can0 2F2#0A12110E09494500 R
(1611284301.772053) can0 30F#0A0A0A0A0A060000 R
(1611284301.773068) can0 311#1F8A1F0A1F1F0321 R
(1611284301.789566) can0 409#2480524440914921 R
(1611284301.793352) can0 330#140F000200000000 R
(1611284301.803319) can0 353#029C01011BB57780 R
(1611284301.813034) can0 555#5C02000000000000 R
(1611284301.833378) can0 128#00F1000000000000 R
(1611284301.843321) can0 6F6#1541DB38FF63E414 R
(1611284301.844289) can0 2E2#0000000000000000 R
(1611284301.845352) can0 2FC#0000000003000046 R
(1611284301.846421) can0 307#0000008000000000 R
(1611284301.847399) can0 313#8F00000000000000 R
(1611284301.848415) can0 315#00000007FF000000 R
(1611284301.853025) can0 2D4#0000000010100000 R
(1611284301.853992) can0 330#1361000200000000 R
(1611284301.854991) can0 340#0000000000000000 R
(1611284301.855910) can0 353#029C01011BB57880 R
(1611284301.903317) can0 353#029C01011BB57980 R
(1611284301.913208) can0 360#0000000000000000 R
(1611284301.914177) can0 330#122F000200000000 R
(1611284301.915184) can0 365#0000000000000000 R
(1611284301.916174) can0 55C#0102000000000000 R
(1611284301.933456) can0 128#00F1000000000000 R
(1611284301.943406) can0 2FC#0000000003000046 R
(1611284301.953429) can0 340#0000000000000000 R
(1611284301.954339) can0 353#029C01011BB57880 R
(1611284301.972390) can0 2E6#348A020000000000 R
(1611284301.973417) can0 330#1166000200000000 R
(1611284301.974346) can0 2EC#321E341E32DA0000 R
(1611284301.975316) can0 2EF#348A348A33460100 R
(1611284301.976310) can0 2F2#0A12110E09494500 R
(1611284301.977364) can0 30F#0A0A0A0A0A060000 R
(1611284301.978378) can0 311#1F8A1F0A1F1F0321 R
(1611284302.003323) can0 353#029C01011BB57880 R
(1611284302.009947) can0 501#0C02EE0000000000 R
(1611284302.033420) can0 128#00F1000000000000 R
(1611284302.034386) can0 330#107D000200000000 R
(1611284302.039952) can0 409#2480524440914921 R
(1611284302.040896) can0 403#420400D7D7020100 R
(1611284302.041894) can0 406#0504000700000000 R
(1611284302.043440) can0 2FC#0000000003000046 R
(1611284302.053400) can0 340#0000000000000000 R
(1611284302.054321) can0 353#029C01011BB57880 R
(1611284302.083353) can0 6F6#1541DB38FF63E414 R
(1611284302.093408) can0 330#0ECD000200000000 R
(1611284302.094389) can0 2E2#0000000000000000 R
(1611284302.095418) can0 313#8F00000000000000 R
(1611284302.096453) can0 315#00000007FF000000 R
(1611284302.103089) can0 2D4#0000000010100000 R
(1611284302.104000) can0 353#029C01011BB57880 R
(1611284302.109044) can0 50C#1102EE0000000000 R
(1611284302.133417) can0 128#00F1000000000000 R
(1611284302.143456) can0 2FC#0000000003000046 R
(1611284302.153457) can0 330#0EB9000200000000 R
(1611284302.154444) can0 340#0000000000000000 R
(1611284302.155371) can0 353#029C01011BB57780 R
(1611284302.185577) can0 2E6#348A020000000000 R
(1611284302.186562) can0 2EC#321E341E32DA0000 R
(1611284302.187534) can0 2EF#348A348A33460100 R
(1611284302.188542) can0 2F2#0A12110E09494500 R
(1611284302.189629) can0 2F4#3000FFFFFFFC0000 R
(1611284302.190701) can0 2F9#0000000000000000 R
(1611284302.191732) can0 309#2020202020202020 R
(1611284302.192786) can0 30B#0000020000030800 R
(1611284302.193839) can0 30D#0000001540B60000 R
(1611284302.194876) can0 30F#0A0A0A0A0A060000 R
(1611284302.195891) can0 311#1F8A1F0A1F1F0321 R
(1611284302.196885) can0 317#5739453836313031 R
(1611284302.197981) can0 6FC#0000000000000000 R
(1611284302.203340) can0 353#029C01011BB57880 R
(1611284302.204294) can0 511#5502EE0000040400 R
(1611284302.213409) can0 330#0E8E000200000000 R
(1611284302.214411) can0 640#1000000000000000 R
(1611284302.233438) can0 128#00F1000000000000 R
(1611284302.243487) can0 2FC#0000000003000046 R
(1611284302.253457) can0 340#0000000000000000 R
(1611284302.254364) can0 353#029C01011BB57780 R
(1611284302.273430) can0 330#0E54000200000000 R
(1611284302.290134) can0 409#2480524440914921 R
(1611284302.293134) can0 555#5C02000000000000 R
(1611284302.303375) can0 353#029C01011BB57580 R
(1611284302.323381) can0 6F6#1541DB38FF63E414 R
(1611284302.333458) can0 128#00F1000000000000 R
(1611284302.334424) can0 330#0DDE000200000000 R
(1611284302.343632) can0 2E2#0000000000000000 R
(1611284302.344636) can0 2FC#0000000003000046 R
(1611284302.345655) can0 307#0000008000000000 R
(1611284302.346669) can0 313#8F00000000000000 R
(1611284302.347687) can0 315#00000007FF000000 R
(1611284302.353158) can0 2D4#0000000010100000 R
(1611284302.354122) can0 340#0000000000000000 R
(1611284302.355040) can0 353#029C01011BB57580 R
(1611284302.393438) can0 330#0DAB000200000000 R
(1611284302.394419) can0 55C#0102000000000000 R
(1611284302.403403) can0 353#029C01011BB57580 R
(1611284302.424710) can0 360#0000000000000000 R
(1611284302.426227) can0 365#0000000000000000 R
(1611284302.426643) can0 2E6#348A020000000000 R
(1611284302.427663) can0 2EC#321E341E32DA0000 R
(1611284302.428628) can0 2EF#348A348A33460100 R
(1611284302.429618) can0 2F2#0A12110E09494500 R
(1611284302.430674) can0 30F#0A0A0A0A0A060000 R
(1611284302.431709) can0 311#1F8A1F0A1F1F0321 R
(1611284302.433463) can0 128#00F1000000000000 R
(1611284302.443508) can0 2FC#0000000003000046 R
(1611284302.453430) can0 330#0D87000200000000 R
(1611284302.454424) can0 340#0000000000000000 R
(1611284302.455348) can0 353#029C01011BB57680 R
(1611284302.490517) can0 501#0C02EE0000000000 R
(1611284302.503399) can0 353#029C01011BB57780 R
(1611284302.513457) can0 330#0D6C000200000000 R
(1611284302.533477) can0 128#00F1000000000000 R
(1611284302.540469) can0 409#2480524440914921 R
(1611284302.541413) can0 403#420400D7D7020100 R
(1611284302.542404) can0 406#0504000700000000 R
(1611284302.543559) can0 2FC#0000000003000046 R
(1611284302.553483) can0 340#0000000000000000 R
(1611284302.554398) can0 353#029C01011BB57680 R
(1611284302.563412) can0 6F6#15FEE80BA76D30DC R
(1611284302.573459) can0 330#0D56000200000000 R
(1611284302.590891) can0 50C#1102EE0000000000 R
(1611284302.593534) can0 2E2#0000000000000000 R
(1611284302.594544) can0 313#9000000000000000 R
(1611284302.595568) can0 315#00000007FF000000 R
(1611284302.603175) can0 2D4#0000000010100000 R
(1611284302.604088) can0 353#029C01011BB57780 R
(1611284302.630552) can0 2E6#348A020000000000 R
(1611284302.631540) can0 2EC#321E341E32DA0000 R
(1611284302.632514) can0 2EF#348A348A33460100 R
(1611284302.633514) can0 128#00F1000000000000 R
(1611284302.634445) can0 2F2#0A12110E09494500 R
(1611284302.635442) can0 330#0D66000200000000 R
(1611284302.636455) can0 30F#0A0A0A0A0A060000 R
(1611284302.637427) can0 311#1F8A1F0A1F1F0321 R
(1611284302.643535) can0 2FC#0000000003000046 R
(1611284302.653492) can0 340#0000000000000000 R
(1611284302.654409) can0 353#029C01011BB57780 R
(1611284302.683502) can0 511#5502EE0000040400 R
(1611284302.693481) can0 330#0D85000200000000 R
(1611284302.703494) can0 353#029C01011BB57780 R
(1611284302.733506) can0 128#00F1000000000000 R
(1611284302.740620) can0 2F4#3000FFFFFFFC0000 R
(1611284302.741681) can0 2F9#0000000000000000 R
(1611284302.742711) can0 309#2020202020202020 R
(1611284302.743705) can0 2FC#0000000003000046 R
(1611284302.744689) can0 30B#0000020000030800 R
(1611284302.745727) can0 30D#0000001540B60000 R
(1611284302.753507) can0 330#0D99000200000000 R
(1611284302.754487) can0 340#0000000000000000 R
(1611284302.755412) can0 353#029C01011BB57680 R
(1611284302.773230) can0 555#5C02000000000000 R
(1611284302.790717) can0 409#2480524440914921 R
(1611284302.803451) can0 353#029C01011BB57680 R
(1611284302.804353) can0 6F6#15FEE80BA76D30DC R
(1611284302.813585) can0 330#0DC2000200000000 R
(1611284302.833533) can0 128#00F1000000000000 R
(1611284302.843580) can0 2E2#0000000000000000 R
(1611284302.844584) can0 2FC#0000000003000046 R
(1611284302.845551) can0 2E6#348A020000000000 R
(1611284302.846544) can0 307#0000008000000000 R
(1611284302.847488) can0 2EC#321E341E32DA0000 R
(1611284302.848479) can0 313#9000000000000000 R
(1611284302.849397) can0 2EF#348A348A33460100 R
(1611284302.850389) can0 315#00000007FF000000 R
(1611284302.851323) can0 2F2#0A12110E09494500 R
(1611284302.852369) can0 30F#0A0A0A0A0A060000 R
(1611284302.853364) can0 2D4#0000000010100000 R
(1611284302.854306) can0 311#1F8A1F0A1F1F0321 R
(1611284302.855305) can0 340#0000000000000000 R
(1611284302.856231) can0 353#029C01011BB57780 R
(1611284302.873497) can0 330#0DE3000200000000 R
(1611284302.874476) can0 55C#0102000000000000 R
(1611284302.903459) can0 353#029C01011BB57780 R
(1611284302.933545) can0 128#00F1000000000000 R
(1611284302.934506) can0 330#0E02000200000000 R
(1611284302.936262) can0 360#0000000000000000 R
(1611284302.937270) can0 365#0000000000000000 R
(1611284302.943604) can0 2FC#0000000003000046 R
(1611284302.953528) can0 340#0000000000000000 R
(1611284302.954442) can0 353#029C01011BB57680 R
(1611284302.960863) can0 30B#0000000000030800 R
(1611284302.971050) can0 501#0C02EE0000000000 R
(1611284302.993508) can0 330#0E15000200000000 R
(1611284303.003474) can0 353#029C01011BB57680 R
(1611284303.033626) can0 128#00F1000000000000 R
(1611284303.041042) can0 409#2480524440914921 R
(1611284303.041986) can0 403#420400D7D7020100 R
(1611284303.042976) can0 406#0504000700000000 R
(1611284303.043969) can0 2FC#0000000003000046 R
(1611284303.053550) can0 330#0E1F000200000000 R
(1611284303.054541) can0 340#0000000000000000 R
(1611284303.055467) can0 353#029C01011BB57680 R
(1611284303.056391) can0 6F6#15FEE80BA76D30DC R
(1611284303.057334) can0 2E6#348A020000000000 R
(1611284303.058335) can0 2EC#321E341E32DA0000 R
(1611284303.059309) can0 2EF#348A348A33460100 R
(1611284303.060300) can0 2F2#0A12110E09494500 R
(1611284303.061364) can0 30B#0000000000038800 R
(1611284303.062457) can0 30F#0A0A0A0A0A060000 R
(1611284303.063484) can0 311#1F8A1F0A1F1F0321 R
(1611284303.079386) can0 50C#1102EE0000000000 R
(1611284303.093624) can0 2E2#0000000000000000 R
(1611284303.094629) can0 313#8E00000000000000 R
(1611284303.095642) can0 315#00000007FF000000 R
(1611284303.103269) can0 2D4#0000000010100000 R
(1611284303.104181) can0 353#029C01011BB57680 R
(1611284303.113558) can0 330#0E1A000200000000 R
(1611284303.133205) can0 30B#0000000000039858 R
(1611284303.134997) can0 128#00F1000000000000 R
(1611284303.143626) can0 2FC#0000000003000046 R
(1611284303.153563) can0 340#0000000000000000 R
(1611284303.154473) can0 353#029C01011BB57580 R
(1611284303.173548) can0 330#0E14000200000000 R
(1611284303.174491) can0 511#5502EE0000040400 R
(1611284303.203496) can0 353#029C01011BB57680 R
(1611284303.204482) can0 640#1000000000000000 R
(1611284303.233577) can0 128#00F1000000000000 R
(1611284303.235183) can0 330#0E0C000200000000 R
(1611284303.243659) can0 2FC#0000000003000046 R
(1611284303.253694) can0 340#0000000000000000 R
(1611284303.254572) can0 353#029C01011BB57680 R
(1611284303.270671) can0 2E6#348A020000000000 R
(1611284303.271660) can0 2EC#321E341E32DA0000 R
(1611284303.272634) can0 2EF#348A348A33460100 R
(1611284303.273602) can0 555#5C02000000000000 R
(1611284303.274538) can0 2F2#0A12110E09494500 R
(1611284303.275608) can0 2F4#3000FFFFFFFC0000 R
(1611284303.276669) can0 2F9#0000000000000000 R
(1611284303.277699) can0 309#2020202020202020 R
(1611284303.278746) can0 30B#0000000000039858 R
(1611284303.279806) can0 30D#0000001540B60000 R
(1611284303.280859) can0 30F#0A0A0A0A0A060000 R
(1611284303.281860) can0 311#1F8A1F0A1F1F0321 R
(1611284303.282855) can0 317#5739453836313031 R
(1611284303.283764) can0 6F6#15FEE80BA76D30DC R
(1611284303.284770) can0 6FC#0000000000000000 R
(1611284303.291340) can0 409#2480524440914921 R
(1611284303.293558) can0 330#0DEE000200000000 R
(1611284303.303517) can0 353#029C01011BB57580 R
(1611284303.333610) can0 128#00F1000000000000 R
(1611284303.343673) can0 2E2#0000000000000000 R
(1611284303.344682) can0 2FC#0000000003000046 R
(1611284303.345701) can0 307#0000008000000000 R
(1611284303.346717) can0 313#8F00000000000000 R
(1611284303.347731) can0 315#00000007FF000000 R
(1611284303.353313) can0 2D4#0000000010100000 R
(1611284303.354276) can0 330#0DDC000200000000 R
(1611284303.355283) can0 340#0000000000000000 R
(1611284303.356194) can0 353#029C01011BB57580 R
(1611284303.373772) can0 55C#0102000000000000 R
(1611284303.403519) can0 353#029C01011BB57480 R
(1611284303.413575) can0 330#0DCD000200000000 R
(1611284303.433602) can0 128#00F1000000000000 R
(1611284303.443695) can0 2FC#0000000003000046 R
(1611284303.447649) can0 360#0000000000000000 R
(1611284303.448643) can0 365#0000000000000000 R
(1611284303.453602) can0 340#0000000000000000 R
(1611284303.454515) can0 353#029C01011BB57480 R
(1611284303.471631) can0 501#0C02EE0000000000 R
(1611284303.473638) can0 330#0DBC000200000000 R
(1611284303.477663) can0 2E6#348A020000000000 R
(1611284303.478646) can0 2EC#321E341E32DA0000 R
(1611284303.479618) can0 2EF#348A348A33460100 R
(1611284303.480611) can0 2F2#0A12110E09494500 R
(1611284303.481666) can0 30F#0A0A0A0A0A060000 R
(1611284303.482681) can0 311#1F8A1F0A1F1F0321 R
(1611284303.503535) can0 353#029C01011BB57480 R
(1611284303.533618) can0 128#00F1000000000000 R
(1611284303.535255) can0 330#0D95000200000000 R
(1611284303.535482) can0 6F6#1541FD1ED1FF0CE3 R
(1611284303.541722) can0 409#2480524440914921 R
(1611284303.542678) can0 403#420400D7D7020100 R
(1611284303.543655) can0 406#0504000700000000 R
(1611284303.544645) can0 2FC#0000000003000046 R
(1611284303.553613) can0 340#0000000000000000 R
(1611284303.554523) can0 353#029C01011BB57480 R
(1611284303.560289) can0 50C#1102EE0000000000 R
(1611284303.593589) can0 330#0D7F000200000000 R
(1611284303.594567) can0 2E2#0000000000000000 R
(1611284303.595584) can0 313#9000000000000000 R
(1611284303.596667) can0 315#00000007FF000000 R
(1611284303.603331) can0 2D4#0000000010100000 R
(1611284303.604256) can0 353#029C01011BB57380 R
(1611284303.633615) can0 128#00F1000000000000 R
(1611284303.643710) can0 2FC#0000000003000046 R
(1611284303.653601) can0 330#0D67000200000000 R
(1611284303.654598) can0 340#0000000000000000 R
(1611284303.655522) can0 353#029C01011BB57480 R
(1611284303.656487) can0 511#5502EE0000040400 R
(1611284303.688316) can0 2E6#348A020000000000 R
(1611284303.689303) can0 2EC#321E341E32DA0000 R
(1611284303.690278) can0 2EF#348A348A33460100 R
(1611284303.691269) can0 2F2#0A12110E09494500 R
(1611284303.692332) can0 30F#0A0A0A0A0A060000 R
(1611284303.693347) can0 311#1F8A1F0A1F1F0321 R
(1611284303.703564) can0 353#029C01011BB57380 R
(1611284303.713637) can0 330#0D54000200000000 R
(1611284303.733640) can0 128#00F1000000000000 R
(1611284303.743719) can0 2FC#0000000003000046 R
(1611284303.753380) can0 555#5C02000000000000 R
(1611284303.754369) can0 340#0000000000000000 R
(1611284303.755288) can0 353#029C01011BB57480 R
(1611284303.773623) can0 330#0D35000200000000 R
(1611284303.774518) can0 6F6#1541FD1ED1FF0CE3 R
(1611284303.791836) can0 409#2480524440914921 R
(1611284303.793867) can0 2F4#3000FFFFFFFC0000 R
(1611284303.794937) can0 2F9#0000000000000000 R
(1611284303.795968) can0 309#2020202020202020 R
(1611284303.797000) can0 30B#0000000000039858 R
(1611284303.798039) can0 30D#0000001540B60000 R
(1611284303.803634) can0 353#029C01011BB57380 R
(1611284303.833643) can0 128#00F1000000000000 R
(1611284303.834618) can0 330#0D2D000200000000 R
(1611284303.843717) can0 2E2#0000000000000000 R
(1611284303.844728) can0 2FC#0000000003000046 R
(1611284303.845805) can0 307#0000008000000000 R
(1611284303.846791) can0 313#8F00000000000000 R
(1611284303.847791) can0 315#00000007FF000000 R
(1611284303.853376) can0 2D4#0000000010100000 R
(1611284303.854374) can0 340#0000000000000000 R
(1611284303.855317) can0 353#029C01011BB57280 R
(1611284303.856302) can0 55C#0102000000000000 R
(1611284303.893645) can0 330#0D2A000200000000 R
(1611284303.897598) can0 2E6#348A020000000000 R
(1611284303.898609) can0 2EC#321E341E32DA0000 R
(1611284303.899584) can0 2EF#348A348A33460100 R
(1611284303.900575) can0 2F2#0A12110E09494500 R
(1611284303.901629) can0 30F#0A0A0A0A0A060000 R
(1611284303.902645) can0 311#1F8A1F0A1F1F1321 R
(1611284303.903593) can0 353#029C01011BB57380 R
(1611284303.930147) can0 2E6#348A120000000000 R
(1611284303.931113) can0 309#547269706C65204D R
(1611284303.933655) can0 128#00F1000000000000 R
(1611284303.939507) can0 30B#000000000003D858 R
(1611284303.943740) can0 2FC#0000000003000046 R
(1611284303.952160) can0 501#0C02EE0000000000 R
(1611284303.953648) can0 330#0D2A000200000000 R
(1611284303.954646) can0 340#0000000000000000 R
(1611284303.955565) can0 353#029C01011BB57480 R
(1611284303.959157) can0 360#0000000000000000 R
(1611284303.960159) can0 365#0000000000000000 R
(1611284304.003642) can0 353#029C01011BB57280 R
(1611284304.013663) can0 330#0D2D000200000000 R
(1611284304.014574) can0 6F6#1541FD1ED1FF0CE3 R
(1611284304.033672) can0 128#00F1000000000000 R
(1611284304.042185) can0 409#2480524440914921 R
(1611284304.043118) can0 403#420400D7D7020100 R
(1611284304.044108) can0 2FC#0000000003000046 R
(1611284304.045100) can0 406#0504000700000000 R
(1611284304.047103) can0 50C#1102EE0000000000 R
(1611284304.053674) can0 340#0000000000000000 R
(1611284304.054597) can0 353#029C01011BB57380 R
(1611284304.073663) can0 330#0D30000200000000 R
(1611284304.093779) can0 2E2#0000000000000000 R
(1611284304.094768) can0 313#8E00000000000000 R
(1611284304.095783) can0 315#00000007FF000000 R
(1611284304.103429) can0 2D4#0000000010100000 R
(1611284304.104358) can0 353#029C01011BB57280 R
(1611284304.107525) can0 2E6#348A120000000000 R
(1611284304.108503) can0 2EC#321E341E32DA0000 R
(1611284304.109474) can0 2EF#348A348A33460100 R
(1611284304.110469) can0 2F2#0A12110E09494500 R
(1611284304.111525) can0 30F#0A0A0A0A0A060000 R
(1611284304.112556) can0 311#1F8A1F0A1F1F1321 R
(1611284304.133752) can0 128#00F1000000000000 R
(1611284304.134721) can0 330#0D36000200000000 R
(1611284304.143702) can0 511#5502EE0000040400 R
(1611284304.144679) can0 2FC#0000000003000046 R
(1611284304.153687) can0 340#0000000000000000 R
(1611284304.154614) can0 353#029C01011BB57280 R
(1611284304.193677) can0 330#0D38000200000000 R
(1611284304.203635) can0 353#029C01011BB57280 R
(1611284304.204635) can0 640#1000000000000000 R
(1611284304.233467) can0 555#5C02000000000000 R
(1611284304.234454) can0 128#00F1000000000000 R
(1611284304.243817) can0 2FC#0000000003000046 R
(1611284304.253700) can0 330#0D2F000200000000 R
(1611284304.254688) can0 340#0000000000000000 R
(1611284304.255615) can0 353#029C01011BB57380 R
(1611284304.256536) can0 6F6#1541FD1ED1FF0CE3 R
(1611284304.292415) can0 409#2480524440914921 R
(1611284304.303648) can0 353#029C01011BB57180 R
(1611284304.313710) can0 330#0D28000200000000 R
(1611284304.320767) can0 2E6#348A120000000000 R
(1611284304.321764) can0 2EC#321E341E32DA0000 R
(1611284304.322739) can0 2EF#348A348A33460100 R
(1611284304.323729) can0 2F2#0A12110E09494500 R
(1611284304.324801) can0 2F4#3000FFFFFFFC0000 R
(1611284304.325876) can0 2F9#0000000000000000 R
(1611284304.326849) can0 309#547269706C65204D R
(1611284304.327894) can0 30B#000000000003D858 R
(1611284304.328917) can0 30D#0000001540B60000 R
(1611284304.329966) can0 30F#0A0A0A0A0A060000 R
(1611284304.330980) can0 311#1F8A1F0A1F1F1321 R
(1611284304.331972) can0 317#5739453836313031 R
(1611284304.333051) can0 6FC#0000000000000000 R
(1611284304.334050) can0 128#00F1000000000000 R
(1611284304.335041) can0 55C#0102000000000000 R
(1611284304.343891) can0 2E2#0000000000000000 R
(1611284304.345477) can0 2FC#0000000003000046 R
(1611284304.345838) can0 307#0000008000000000 R
(1611284304.346857) can0 313#8F00000000000000 R
(1611284304.347869) can0 315#00000007FF000000 R
(1611284304.353457) can0 2D4#0000000010100000 R
(1611284304.354454) can0 340#0000000000000000 R
(1611284304.355381) can0 353#029C01011BB57180 R
(1611284304.373707) can0 330#0D1F000200000000 R
(1611284304.403664) can0 353#029C01011BB57180 R
(1611284304.432704) can0 501#0C02EE0000000000 R
(1611284304.433742) can0 128#00F1000000000000 R
(1611284304.434716) can0 330#0D18000200000000 R
(1611284304.443829) can0 2FC#0000000003000046 R
(1611284304.453734) can0 340#0000000000000000 R
(1611284304.454655) can0 353#029C01011BB57180 R
(1611284304.470599) can0 360#0000000000000000 R
(1611284304.471596) can0 365#0000000000000000 R
(1611284304.493735) can0 330#0CFB000200000000 R
(1611284304.494638) can0 6F6#15428261AFD588F1 R
(1611284304.503691) can0 353#029C01011BB57080 R
(1611284304.533764) can0 128#00F1000000000000 R
(1611284304.534700) can0 2E6#348A120000000000 R
(1611284304.535700) can0 2EC#321E341E32DA0000 R
(1611284304.536674) can0 2EF#348A348A33460100 R
(1611284304.537665) can0 2F2#0A12110E09494500 R
(1611284304.538719) can0 30F#0A0A0A0A0A060000 R
(1611284304.539733) can0 311#1F8A1F0A1F1F1321 R
(1611284304.540798) can0 50C#1102EE0000000000 R
(1611284304.542853) can0 409#2480524440914921 R
(1611284304.543804) can0 403#420400D7D7020100 R
(1611284304.544794) can0 2FC#0000000003000046 R
(1611284304.545785) can0 406#0504000700000000 R
(1611284304.553731) can0 330#0CEE000200000000 R
(1611284304.554722) can0 340#0000000000000000 R
(1611284304.555654) can0 353#029C01011BB56F80 R
(1611284304.593867) can0 2E2#0000000000000000 R
(1611284304.594871) can0 313#9000000000000000 R
(1611284304.595893) can0 315#00000007FF000000 R
(1611284304.603515) can0 2D4#0000000010100000 R
(1611284304.604445) can0 353#029C01011BB56F80 R
(1611284304.613745) can0 330#0CE2000200000000 R
(1611284304.633789) can0 128#00F1000000000000 R
(1611284304.634709) can0 511#5502EE0000040400 R
(1611284304.643854) can0 2FC#0000000003000046 R
(1611284304.653764) can0 340#0000000000000000 R
(1611284304.654683) can0 353#029C01011BB57080 R
(1611284304.673766) can0 330#0CDB000200000000 R
(1611284304.703707) can0 353#029C01011BB57080 R
(1611284304.733568) can0 555#5C02000000000000 R
(1611284304.734557) can0 128#00F1000000000000 R
(1611284304.735514) can0 2E6#348A120000000000 R
(1611284304.736513) can0 330#0CE0000200000000 R
(1611284304.737433) can0 2EC#321E341E32DA0000 R
(1611284304.738342) can0 6F6#15428261AFD588F1 R
(1611284304.739262) can0 2EF#348A348A33460100 R
(1611284304.740276) can0 2F2#0A12110E09494500 R
(1611284304.741403) can0 30F#0A0A0A0A0A060000 R
(1611284304.742343) can0 311#1F8A1F0A1F1F1321 R
(1611284304.743890) can0 2FC#0000000003000046 R
(1611284304.753788) can0 340#0000000000000000 R
(1611284304.754708) can0 353#029C01011BB57080 R
(1611284304.792999) can0 409#2480524440914921 R
(1611284304.793976) can0 330#0CE5000200000000 R
(1611284304.803719) can0 353#029C01011BB56E80 R
(1611284304.833807) can0 128#00F1000000000000 R
(1611284304.834787) can0 55C#0102000000000000 R
(1611284304.835794) can0 2F4#3000FFFFFFFC0000 R
(1611284304.836862) can0 2F9#0000000000000000 R
(1611284304.837844) can0 309#547269706C65204D R
(1611284304.838871) can0 30B#000000000003D858 R
(1611284304.839910) can0 30D#0000001540B60000 R
(1611284304.843898) can0 2E2#0000000000000000 R
(1611284304.844935) can0 2FC#0000000003000046 R
(1611284304.845944) can0 307#0000008000000000 R
(1611284304.846956) can0 313#8F00000000000000 R
(1611284304.847974) can0 315#00000007FF000000 R
(1611284304.853564) can0 2D4#0000000010100000 R
(1611284304.854543) can0 330#0CEE000200000000 R
(1611284304.855545) can0 340#0000000000000000 R
(1611284304.856472) can0 353#029C01011BB57080 R
(1611284304.903804) can0 353#029C01011BB57080 R
(1611284304.913801) can0 330#0CF8000200000000 R
(1611284304.933298) can0 501#0C02EE0000000000 R
(1611284304.934292) can0 128#00F1000000000000 R
(1611284304.935248) can0 2E6#348A120000000000 R
(1611284304.936246) can0 2EC#321E341E32DA0000 R
(1611284304.937246) can0 2EF#348A348A33460100 R
(1611284304.938213) can0 2F2#0A12110E09494500 R
(1611284304.939267) can0 30F#0A0A0A0A0A060000 R
(1611284304.940283) can0 311#1F8A1F0A1F1F2331 R
(1611284304.943916) can0 2FC#0000000003000046 R
(1611284304.953814) can0 340#0000000000000000 R
(1611284304.954739) can0 353#029C01011BB56F80 R
(1611284304.973802) can0 330#0D03000200000000 R
(1611284304.974706) can0 6F6#15428261AFD588F1 R
(1611284304.982110) can0 360#0000000000000000 R
(1611284304.983113) can0 365#0000000000000000 R
(1611284305.003771) can0 353#029C01011BB56F80 R
(1611284305.015168) can0 50C#1102EE0000000000 R
(1611284305.033824) can0 128#00F1000000000000 R
(1611284305.034799) can0 330#0D00000200000000 R
(1611284305.043369) can0 409#2480524440914921 R
(1611284305.044367) can0 2FC#0000000003000046 R
(1611284305.045315) can0 403#420400D7D7020100 R
(1611284305.046309) can0 406#0504000700000000 R
(1611284305.053829) can0 340#0000000000000000 R
(1611284305.054740) can0 353#029C01011BB56E80 R
(1611284305.093864) can0 330#0CFC000200000000 R
(1611284305.094809) can0 2E2#0000000000000000 R
(1611284305.095823) can0 313#9000000000000000 R
(1611284305.096837) can0 315#00000007FF000000 R
(1611284305.103639) can0 2D4#0000000010100000 R
(1611284305.104544) can0 353#029C01011BB56E80 R
(1611284305.113889) can0 511#5502EE0000040400 R
(1611284305.133846) can0 128#00F1000000000000 R
(1611284305.134792) can0 2E6#348A120000000000 R
(1611284305.135786) can0 2EC#321E341E32DA0000 R
(1611284305.136775) can0 2EF#348A348A33460100 R
(1611284305.137774) can0 2F2#0A12110E09494500 R
(1611284305.138844) can0 30F#0A0A0A0A0A060000 R
(1611284305.139838) can0 311#1F8A1F0A1F1F2331 R
(1611284305.143950) can0 2FC#0000000003000046 R
(1611284305.153802) can0 330#0CF5000200000000 R
(1611284305.154808) can0 340#0000000000000000 R
(1611284305.155725) can0 353#029C01011BB56D80 R
(1611284305.193856) can0 640#1000000000000000 R
(1611284305.203774) can0 353#029C01011BB56E80 R
(1611284305.213654) can0 555#5C02000000000000 R
(1611284305.214619) can0 330#0CE4000200000000 R
(1611284305.215530) can0 6F6#15428261AFD588F1 R
(1611284305.233915) can0 128#00F1000000000000 R
(1611284305.243974) can0 2FC#0000000003000046 R
