(1611136642.111774) can0 200#034502510340C000
(1611136642.112023) can0 207#0000000000000000
(1611136642.112303) can0 425#00FFFFFFFF028000
(1611136642.112457) can0 12D#8100000000000000
(1611136642.112732) can0 427#5193AD7CA0200500
(1611136642.112981) can0 44D#0040000032B047C7
(1611136642.113221) can0 097#0170002F01750025
(1611136642.113460) can0 120#0175000000000000
(1611136642.116486) can0 090#08E5001380000000
(1611136642.116763) can0 4B0#0000000000000000
(1611136642.116937) can0 210#21E0F8001021E000
(1611136642.117226) can0 085#03D7857C031B831C
(1611136642.118754) can0 307#0000000000000000
(1611136642.127799) can0 12D#8100000000000000
(1611136642.127972) can0 097#0170002F01750025
(1611136642.128278) can0 120#0175000000000000
(1611136642.136380) can0 090#08E5001380000000
(1611136642.136640) can0 4B0#0000000000000000
(1611136642.136817) can0 210#21E0F8001021E000
(1611136642.137097) can0 085#03D7857C031A831C
(1611136642.143624) can0 230#00BE760668000000
(1611136642.143884) can0 12D#8100000000000000
(1611136642.144057) can0 097#0170002F01750025
(1611136642.144354) can0 120#0175000000000000
(1611136642.144528) can0 353#03FE3A25148E1981
(1611136642.156380) can0 090#08E5001380000000
(1611136642.156640) can0 4B0#0000000000000000
(1611136642.156813) can0 210#21E0F8001021E000
(1611136642.157093) can0 085#03D8857C031B831C
(1611136642.159651) can0 200#034502510340C000
(1611136642.159912) can0 12D#8100000000000000
(1611136642.160085) can0 097#0170002F01750025
(1611136642.160378) can0 120#0175000000000000
(1611136642.160639) can0 207#0000000000000000
(1611136642.160812) can0 6F6#1505AF4C87693E70
(1611136642.175624) can0 12D#8100000000000000
(1611136642.175866) can0 097#0170002F01750025
(1611136642.176129) can0 120#0175000000000000
(1611136642.176404) can0 0FC#0300000000000000
(1611136642.176701) can0 4B0#0000000000000000
(1611136642.176880) can0 210#21E0F8001021E000
(1611136642.177144) can0 085#03D8857C031B831C
(1611136642.177320) can0 090#08E5001380000000
(1611136642.181777) can0 340#001A000000000000
(1611136642.191801) can0 12D#8100000000000000
(1611136642.191981) can0 097#0170002F01750025
(1611136642.192259) can0 120#0175000000000000
(1611136642.193829) can0 353#03FE3A25148E1981
(1611136642.196325) can0 090#08E5001380000000
(1611136642.196582) can0 4B0#0000000000000000
(1611136642.196822) can0 210#21E0F8001021E000
(1611136642.197061) can0 085#03D7857C031B831C
(1611136642.198760) can0 128#00F1000000000000
(1611136642.199016) can0 350#0400000000000000
(1611136642.199256) can0 437#0F1B010000000081
(1611136642.199495) can0 453#0000000002E6D200
(1611136642.207707) can0 200#034502510340C000
(1611136642.207964) can0 207#0000000000000000
(1611136642.208201) can0 230#00BE760668000000
(1611136642.208440) can0 425#00FFFFFFFF028000
(1611136642.208706) can0 12D#8100000000000000
(1611136642.208858) can0 427#5193AD7CA0200500
(1611136642.209163) can0 44D#0040000032B047C7
(1611136642.209403) can0 097#0170002F01750025
(1611136642.209660) can0 120#0175000000000000
(1611136642.216515) can0 090#08E5001380000000
(1611136642.216776) can0 4B0#0000000000000000
(1611136642.217036) can0 210#21E0F8001021E000
(1611136642.217209) can0 085#03D8857C031B831C
(1611136642.223714) can0 12D#8100000000000000
(1611136642.223887) can0 097#0170002F01750025
(1611136642.224195) can0 120#0175000000000000
(1611136642.236360) can0 090#08E5001380000000
(1611136642.236600) can0 4B0#0000000000000000
(1611136642.236839) can0 210#21E0F8001021E000
(1611136642.237077) can0 085#03D7857C031B831C
(1611136642.239729) can0 12D#8100000000000000
(1611136642.239969) can0 097#0170002F01750025
(1611136642.240211) can0 120#0175000000000000
(1611136642.243818) can0 353#03FE3A25148E1981
(1611136642.255697) can0 200#034502510340C000
(1611136642.255961) can0 12D#8100000000000000
(1611136642.256138) can0 097#0170002F01750025
(1611136642.256446) can0 090#08E5001380000000
(1611136642.256600) can0 120#0175000000000000
(1611136642.256942) can0 207#0000000000000000
(1611136642.257207) can0 4B0#0000000000000000
(1611136642.257384) can0 210#21E0F8001021E000
(1611136642.257643) can0 085#03D7857C031B831C
(1611136642.271732) can0 230#00BE760668000000
(1611136642.271973) can0 12D#8100000000000000
(1611136642.272225) can0 097#0170002F01750025
(1611136642.272465) can0 120#0175000000000000
(1611136642.276363) can0 090#08E5001380000000
(1611136642.276641) can0 4B0#0000000000000000
(1611136642.276815) can0 210#21E0F8001021E000
(1611136642.277106) can0 085#03D7857C031B831C
(1611136642.282361) can0 340#001A000000000000
(1611136642.287769) can0 12D#8100000000000000
(1611136642.288009) can0 097#0170002F01750025
(1611136642.288248) can0 120#0175000000000000
(1611136642.293836) can0 353#03FE3A25148E1981
(1611136642.296341) can0 090#08E5001380000000
(1611136642.296582) can0 4B0#0000000000000000
(1611136642.296821) can0 210#21E0F8001021E000
(1611136642.297060) can0 085#03D7857C031B831C
(1611136642.298737) can0 128#00F1000000000000
(1611136642.298993) can0 350#0400000000000000
(1611136642.299233) can0 437#0F1B010000000081
(1611136642.299473) can0 453#0000000002E6D200
(1611136642.303790) can0 200#034502510340C000
(1611136642.304046) can0 207#0000000000000000
(1611136642.304285) can0 425#00FFFFFFFF028000
(1611136642.304542) can0 12D#8100000000000000
(1611136642.304782) can0 427#5193AD7CA0200500
(1611136642.305096) can0 44D#0040000032B047C7
(1611136642.305271) can0 097#0170002F01750025
(1611136642.305445) can0 120#0175000000000000
(1611136642.316328) can0 090#08E6001380000000
(1611136642.316585) can0 4B0#0000000000000000
(1611136642.316824) can0 210#21E0F8001021E000
(1611136642.317063) can0 085#03D8857C031B831C
(1611136642.319781) can0 12D#8100000000000000
(1611136642.320021) can0 097#0170002F01750025
(1611136642.320260) can0 120#0175000000000000
(1611136642.335754) can0 230#00BE760668000000
(1611136642.336015) can0 12D#8100000000000000
(1611136642.336188) can0 097#0170002F01750025
(1611136642.336492) can0 090#08E5001380000000
(1611136642.336768) can0 120#0175000000000000
(1611136642.336942) can0 4B0#0000000000000000
(1611136642.337231) can0 210#21E0F8001021E000
(1611136642.337405) can0 085#03D8857C031B831C
(1611136642.337702) can0 623#3644127D00000000
(1611136642.337875) can0 640#50600077400C8600
(1611136642.338180) can0 650#1036440106000000
(1611136642.343852) can0 353#03FE3A25148E1981
(1611136642.351822) can0 200#034502510340C000
(1611136642.352065) can0 12D#8100000000000000
(1611136642.352304) can0 097#0170002F01750025
(1611136642.352544) can0 120#0175000000000000
(1611136642.352800) can0 207#0000000000000000
(1611136642.356365) can0 090#08E5001380000000
(1611136642.356625) can0 4B0#0000000000000000
(1611136642.356885) can0 210#21E0F8001021E000
(1611136642.357059) can0 085#03D7857C031B831C
(1611136642.367859) can0 12D#8100000000000000
(1611136642.368032) can0 097#0170002F01750025
(1611136642.368336) can0 120#0175000000000000
(1611136642.376348) can0 0FC#0300000000000000
(1611136642.376606) can0 4B0#0000000000000000
(1611136642.376845) can0 210#21E0F8001021E000
(1611136642.376997) can0 085#03D8857C031B831C
(1611136642.377308) can0 090#08E5001380000000
(1611136642.382363) can0 340#001A000000000000
(1611136642.383853) can0 12D#8100000000000000
(1611136642.384093) can0 097#0170002F01750025
(1611136642.384332) can0 120#0175000000000000
(1611136642.393853) can0 353#03FE3A25148E1981
(1611136642.396323) can0 090#08E5001380000000
(1611136642.396584) can0 4B0#0000000000000000
(1611136642.396758) can0 210#21E0F8001021E000
(1611136642.397057) can0 085#03D8857C031B831C
(1611136642.398757) can0 128#00F1000000000000
(1611136642.399017) can0 350#0400000000000000
(1611136642.399191) can0 403#8204832424000000
(1611136642.399488) can0 437#0F1B010000000081
(1611136642.399661) can0 453#0000000002E6D200
(1611136642.399966) can0 200#034502510340C000
(1611136642.400227) can0 207#0000000000000000
(1611136642.400400) can0 230#00BE760668000000
(1611136642.400708) can0 425#00FFFFFFFF028000
(1611136642.400968) can0 12D#8100000000000000
(1611136642.401142) can0 427#5193AD7CA0200500
(1611136642.401425) can0 44D#0040000032B047C7
(1611136642.401599) can0 097#0170002F01750025
(1611136642.401908) can0 120#0175000000000000
(1611136642.402081) can0 6F6#1505AF4C87693E70
(1611136642.415899) can0 12D#8100000000000000
(1611136642.416139) can0 097#0170002F01750025
(1611136642.416394) can0 090#08E5001380000000
(1611136642.416670) can0 120#0175000000000000
(1611136642.416822) can0 4B0#0000000000000000
(1611136642.417185) can0 210#21E0F8001021E000
(1611136642.417336) can0 085#03D7857C031B831C
(1611136642.431910) can0 12D#8100000000000000
(1611136642.432174) can0 097#0170002F01750025
(1611136642.432348) can0 120#0175000000000000
(1611136642.436329) can0 090#08E5001380000000
(1611136642.436572) can0 4B0#0000000000000000
(1611136642.436812) can0 210#21E0F8001021E000
(1611136642.437051) can0 085#03D7857C031B831C
(1611136642.443850) can0 353#03FE3A25148E1981
(1611136642.447924) can0 200#034502510340C000
(1611136642.448163) can0 12D#8100000000000000
(1611136642.448403) can0 097#0170002F01750025
(1611136642.448643) can0 120#0175000000000000
(1611136642.448906) can0 207#0000000000000000
(1611136642.456377) can0 090#08E5001380000000
(1611136642.456639) can0 4B0#0000000000000000
(1611136642.456813) can0 210#21E0F8001021E000
(1611136642.457109) can0 085#03D8857C031B831C
(1611136642.464137) can0 230#00BE760668000000
(1611136642.464394) can0 12D#8100000000000000
(1611136642.464542) can0 097#0170002F01750025
(1611136642.464872) can0 120#0175000000000000
(1611136642.476350) can0 090#08E5001380000000
(1611136642.476616) can0 4B0#0000000000000000
(1611136642.476792) can0 210#21E0F8001021E000
(1611136642.477091) can0 085#03D7857C031A831C
(1611136642.480141) can0 12D#8100000000000000
(1611136642.480404) can0 097#0170002F01750025
(1611136642.480580) can0 120#0175000000000000
(1611136642.482236) can0 340#001A000000000000
(1611136642.493895) can0 353#03FE3A25148E1981
(1611136642.496124) can0 200#034502510340C000
(1611136642.496372) can0 090#08E5001380000000
(1611136642.496618) can0 207#0000000000000000
(1611136642.496887) can0 425#00FFFFFFFF028000
(1611136642.497065) can0 12D#8100000000000000
(1611136642.497365) can0 427#5193AD7CA0200500
(1611136642.497543) can0 44D#0040000032B047C7
(1611136642.497819) can0 097#0170002F01750025
(1611136642.498099) can0 120#0175000000000000
(1611136642.498276) can0 4B0#0000000000000000
(1611136642.498586) can0 210#21E0F8001021E000
(1611136642.498763) can0 085#03D7857C031A831C
(1611136642.499061) can0 128#00F1000000000000
(1611136642.499319) can0 350#0400000000000000
(1611136642.499496) can0 437#0F1B010000000081
(1611136642.499770) can0 453#0000000002E6D200
(1611136642.512197) can0 12D#8100000000000000
(1611136642.512461) can0 097#0170002F01750025
(1611136642.512613) can0 120#0175000000000000
(1611136642.516347) can0 090#08E5001380000000
(1611136642.516624) can0 4B0#0000000000000000
(1611136642.516800) can0 210#21E0F8001021E000
(1611136642.517079) can0 085#03D8857C031B831C
(1611136642.528164) can0 230#00BE760668000000
(1611136642.528427) can0 12D#8100000000000000
(1611136642.528603) can0 097#0170002F01750025
(1611136642.528890) can0 120#0175000000000000
(1611136642.536383) can0 090#08E5001380000000
(1611136642.536649) can0 4B0#0000000000000000
(1611136642.536825) can0 210#21E0F8001021E000
(1611136642.537120) can0 085#03D8857C031B831C
(1611136642.543865) can0 353#03FE3A25148E1981
(1611136642.544184) can0 200#034502510340C000
(1611136642.544429) can0 12D#8100000000000000
(1611136642.544670) can0 097#0170002F01750025
(1611136642.544947) can0 120#0175000000000000
(1611136642.545122) can0 207#0000000000000000
(1611136642.556346) can0 090#08E5001380000000
(1611136642.556627) can0 4B0#0000000000000000
(1611136642.556803) can0 210#21E0F8001021E000
(1611136642.557086) can0 085#03D8857C031A831C
(1611136642.560227) can0 12D#8100000000000000
(1611136642.560479) can0 097#0170002F01750025
(1611136642.560741) can0 120#0175000000000000
(1611136642.576195) can0 12D#8100000000000000
(1611136642.576458) can0 097#0170002F01750025
(1611136642.576643) can0 120#0175000000000000
(1611136642.576914) can0 210#21E0F8001021E000
(1611136642.577204) can0 4B0#0000000000000000
(1611136642.577378) can0 085#03D7857C031A831C
(1611136642.577658) can0 090#08E5001380000000
(1611136642.577918) can0 0FC#0300000000000000
(1611136642.581093) can0 340#001A000000000000
(1611136642.592301) can0 200#034502510340C000
(1611136642.592591) can0 207#0000000000000000
(1611136642.592772) can0 230#00BE760668000000
(1611136642.593046) can0 425#00FFFFFFFF028000
(1611136642.593296) can0 12D#8100000000000000
(1611136642.593537) can0 427#5193AD7CA0200500
(1611136642.593796) can0 44D#0040000032B047C7
(1611136642.593950) can0 097#0170002F01750025
(1611136642.594245) can0 120#0175000000000000
(1611136642.594502) can0 353#03FE3A25148E1981
(1611136642.596493) can0 090#08E5001380000000
(1611136642.596734) can0 4B0#0000000000000000
(1611136642.596973) can0 210#21E0F8001021E000
(1611136642.597231) can0 085#03D8857C031A831C
(1611136642.598743) can0 128#00F1000000000000
(1611136642.599007) can0 350#0400000000000000
(1611136642.599266) can0 437#0F1B010000000081
(1611136642.599420) can0 453#0000000002E6D200
(1611136642.608330) can0 12D#8100000000000000
(1611136642.608574) can0 097#0170002F01750025
(1611136642.608816) can0 120#0175000000000000
(1611136642.616373) can0 090#08E5001380000000
(1611136642.616648) can0 4B0#0000000000000000
(1611136642.616802) can0 210#21E0F8001021E000
(1611136642.617113) can0 085#03D8857C031B831C
(1611136642.618744) can0 307#0000000000000000
(1611136642.624129) can0 12D#8100000000000000
(1611136642.624379) can0 097#0170002F01750025
(1611136642.624645) can0 120#0175000000000000
(1611136642.636355) can0 090#08E5001380000000
(1611136642.636613) can0 4B0#0000000000000000
(1611136642.636855) can0 210#21E0F8001021E000
(1611136642.637028) can0 085#03D7857C031B831C
(1611136642.640130) can0 200#034502510340C000
(1611136642.640403) can0 12D#8100000000000000
(1611136642.640557) can0 097#0170002F01750025
(1611136642.640881) can0 120#0175000000000000
(1611136642.641149) can0 207#0000000000000000
(1611136642.641304) can0 6F6#1505AF4C87693E70
(1611136642.643881) can0 353#03FE3A25148E1981
(1611136642.656127) can0 230#00BE760668000000
(1611136642.656404) can0 12D#8100000000000000
(1611136642.656558) can0 090#08E5001380000000
(1611136642.656842) can0 097#0170002F01750025
(1611136642.657116) can0 120#0175000000000000
(1611136642.657270) can0 4B0#0000000000000000
(1611136642.657603) can0 210#21E0F8001021E000
(1611136642.657757) can0 085#03D7857C031B831C
(1611136642.672155) can0 12D#8100000000000000
(1611136642.672431) can0 097#0170002F01750025
(1611136642.672588) can0 120#0175000000000000
(1611136642.676356) can0 090#08E5001380000000
(1611136642.676629) can0 4B0#0000000000000000
(1611136642.676783) can0 210#21E0F8001021E000
(1611136642.677102) can0 085#03D7857C031B831C
(1611136642.680955) can0 340#001A000000000000
(1611136642.688163) can0 200#034502510340C000
(1611136642.688416) can0 207#0000000000000000
(1611136642.688691) can0 425#00FFFFFFFF028000
(1611136642.688845) can0 12D#8100000000000000
(1611136642.689162) can0 427#5193AD7CA0200500
(1611136642.689316) can0 44D#0040000032B047C7
(1611136642.689639) can0 097#0170002F01750025
(1611136642.689793) can0 120#0175000000000000
(1611136642.693900) can0 353#03FE3A25148E1981
(1611136642.696476) can0 090#08E5001380000000
(1611136642.696730) can0 4B0#0000000000000000
(1611136642.696973) can0 210#21E0F8001021E000
(1611136642.697145) can0 085#03D8857C031A831C
(1611136642.698746) can0 128#00F1000000000000
(1611136642.698993) can0 350#0400000000000000
(1611136642.699236) can0 437#0F1B010000000081
(1611136642.699501) can0 453#0000000002E6D200
(1611136642.704240) can0 12D#8100000000000000
(1611136642.704484) can0 097#0170002F01750025
(1611136642.704755) can0 120#0175000000000000
(1611136642.716370) can0 090#08E5001380000000
(1611136642.716623) can0 4B0#0000000000000000
(1611136642.716889) can0 210#21E0F8001021E000
(1611136642.717044) can0 085#03D7857C031A831C
(1611136642.720191) can0 230#00BE760668000000
(1611136642.720458) can0 12D#8100000000000000
(1611136642.720612) can0 097#0170002F01750025
(1611136642.720919) can0 120#0175000000000000
(1611136642.736182) can0 200#034502510340C000
(1611136642.736435) can0 090#08E5001380000000
(1611136642.736707) can0 12D#8100000000000000
(1611136642.736861) can0 097#0170002F01750025
(1611136642.737173) can0 120#0175000000000000
(1611136642.737414) can0 207#0000000000000000
(1611136642.737645) can0 4B0#0000000000000000
(1611136642.737879) can0 210#21E0F8001021E000
(1611136642.738119) can0 085#03D7857C031B831C
(1611136642.743899) can0 353#03FE3A25148E1981
(1611136642.752256) can0 12D#8100000000000000
(1611136642.752513) can0 097#0170002F01750025
(1611136642.752689) can0 120#0175000000000000
(1611136642.756383) can0 090#08E5001380000000
(1611136642.756636) can0 4B0#0000000000000000
(1611136642.756902) can0 210#21E0F8001021E000
(1611136642.757057) can0 085#03D7857C031B831C
(1611136642.768253) can0 12D#8100000000000000
(1611136642.768524) can0 097#0170002F01750025
(1611136642.768679) can0 120#0175000000000000
(1611136642.776383) can0 0FC#0300000000000000
(1611136642.776663) can0 4B0#0000000000000000
(1611136642.776818) can0 210#21E0F8001021E000
(1611136642.777114) can0 085#03D8857C031B831C
(1611136642.777289) can0 090#08E5001380000000
(1611136642.781136) can0 340#001A000000000000
(1611136642.783157) can0 454#0000000000000000
(1611136642.784267) can0 200#034502510340C000
(1611136642.784531) can0 207#0000000000000000
(1611136642.784706) can0 230#00BE760668000000
(1611136642.785044) can0 425#00FFFFFFFF028000
(1611136642.785197) can0 12D#8100000000000000
(1611136642.785485) can0 427#5193AD7CA0200500
(1611136642.785660) can0 44D#0040000032B047C7
(1611136642.785962) can0 097#0170002F01750025
(1611136642.786221) can0 120#0175000000000000
(1611136642.793928) can0 353#03FE3A25148E1981
(1611136642.796402) can0 090#08E5001380000000
(1611136642.796667) can0 4B0#0000000000000000
(1611136642.796840) can0 210#21E0F8001021E000
(1611136642.797109) can0 085#03D8857C031B831C
(1611136642.798767) can0 128#00F1000000000000
(1611136642.799029) can0 350#0400000000000000
(1611136642.799202) can0 437#0F1B010000000081
(1611136642.799497) can0 453#0000000002E6D200
(1611136642.800314) can0 12D#8100000000000000
(1611136642.800492) can0 097#0170002F01750025
(1611136642.800796) can0 120#0175000000000000
(1611136642.816313) can0 12D#8100000000000000
(1611136642.816490) can0 090#08E5001380000000
(1611136642.816788) can0 097#0170002F01750025
(1611136642.817058) can0 120#0175000000000000
(1611136642.817233) can0 4B0#0000000000000000
(1611136642.817523) can0 210#21E0F8001021E000
(1611136642.817695) can0 085#03D7857C031B831C
(1611136642.832327) can0 200#034502510340C000
(1611136642.832505) can0 12D#8100000000000000
(1611136642.832805) can0 097#0170002F01750025
(1611136642.833075) can0 120#0175000000000000
(1611136642.833249) can0 207#0000000000000000
(1611136642.836392) can0 090#08E5001380000000
(1611136642.836662) can0 4B0#0000000000000000
(1611136642.836835) can0 210#21E0F8001021E000
(1611136642.837114) can0 085#03D7857C031B831C
(1611136642.843938) can0 353#03FE3A25148E1981
(1611136642.848336) can0 230#00BE760668000000
(1611136642.848591) can0 12D#8100000000000000
(1611136642.848742) can0 097#0170002F01750025
(1611136642.849056) can0 120#0175000000000000
(1611136642.856477) can0 090#08E5001380000000
(1611136642.856734) can0 4B0#0000000000000000
(1611136642.856977) can0 210#21E0F8001021E000
(1611136642.857216) can0 085#03D7857C031B831C
(1611136642.864352) can0 12D#8100000000000000
(1611136642.864595) can0 097#0170002F01750025
(1611136642.864842) can0 120#0175000000000000
(1611136642.876383) can0 090#08E5001380000000
(1611136642.876660) can0 4B0#0000000000000000
(1611136642.876836) can0 210#21E0F8001021E000
(1611136642.877124) can0 085#03D7857C031B831C
(1611136642.880370) can0 200#034502510340C000
(1611136642.880635) can0 207#0000000000000000
(1611136642.880808) can0 425#00FFFFFFFF028000
(1611136642.881114) can0 12D#8100000000000000
(1611136642.881374) can0 340#001A000000000000
(1611136642.881547) can0 427#5193AD7CA0200500
(1611136642.881831) can0 44D#0040000032B047C7
(1611136642.882004) can0 097#0170002F01750025
(1611136642.882316) can0 120#0175000000000000
(1611136642.882490) can0 6F6#1505AF4C87693E70
(1611136642.893939) can0 353#03FE3A25148E1981
(1611136642.896360) can0 090#08E5001380000000
(1611136642.896613) can0 12D#8100000000000000
(1611136642.896767) can0 097#0170002F01750025
(1611136642.897073) can0 120#0175000000000000
(1611136642.897320) can0 4B0#0000000000000000
(1611136642.897586) can0 210#21E0F8001021E000
(1611136642.897740) can0 085#03D8857C031A831C
(1611136642.898748) can0 128#00F1000000000000
(1611136642.898989) can0 350#0400000000000000
(1611136642.899268) can0 403#8204822424000000
(1611136642.899446) can0 437#0F1C010000000081
(1611136642.899744) can0 453#0000000002E6D200
(1611136642.912413) can0 230#00BE760668000000
(1611136642.912655) can0 12D#8100000000000000
(1611136642.912874) can0 097#0170002F01750025
(1611136642.913143) can0 120#0175000000000000
(1611136642.916369) can0 090#08E5001380000000
(1611136642.916616) can0 4B0#0000000000000000
(1611136642.916856) can0 210#21E0F8001021E000
(1611136642.917096) can0 085#03D7857C031B831C
(1611136642.928406) can0 200#034502510340C000
(1611136642.928663) can0 12D#8100000000000000
(1611136642.928904) can0 097#0170002F01750025
(1611136642.929150) can0 120#0175000000000000
(1611136642.929395) can0 207#0000000000000000
(1611136642.936385) can0 090#08E5001380000000
(1611136642.936639) can0 4B0#0000000000000000
(1611136642.936879) can0 210#21E0F8001021E000
(1611136642.937029) can0 085#03D8857C031A831C
(1611136642.943931) can0 353#03FE3A25148E1981
(1611136642.944621) can0 12D#8100000000000000
(1611136642.944863) can0 097#0170002F01750025
(1611136642.945064) can0 120#0175000000000000
(1611136642.956335) can0 090#08E5001380000000
(1611136642.956590) can0 4B0#0000000000000000
(1611136642.956861) can0 210#21E0F8001021E000
(1611136642.957014) can0 085#03D7857C031A831C
(1611136642.960660) can0 12D#8100000000000000
(1611136642.960909) can0 097#0170002F01750025
(1611136642.961155) can0 120#0175000000000000
(1611136642.976361) can0 0FC#0300000000000000
(1611136642.976608) can0 4B0#0000000000000000
(1611136642.976849) can0 200#034502510340C000
(1611136642.977097) can0 207#0000000000000000
(1611136642.977343) can0 210#21E0F8001021E000
(1611136642.977588) can0 085#03D7857C031B831C
(1611136642.977827) can0 090#08E5001380000000
(1611136642.978083) can0 230#00BE760668000000
(1611136642.978237) can0 425#00FFFFFFFF028000
(1611136642.978552) can0 12D#8100000000000000
(1611136642.978784) can0 427#5193AD7CA0200500
(1611136642.979045) can0 44D#0040000032B047C7
(1611136642.979199) can0 097#0170002F01750025
(1611136642.979506) can0 120#0175000000000000
(1611136642.979966) can0 340#001A000000000000
(1611136642.992728) can0 12D#8100000000000000
(1611136642.992977) can0 097#0170002F01750025
(1611136642.993216) can0 120#0175000000000000
(1611136642.993970) can0 353#03FE3A25148E1981
(1611136642.996344) can0 090#08E5001380000000
(1611136642.996598) can0 4B0#0000000000000000
(1611136642.996861) can0 210#21E0F8001021E000
(1611136642.997039) can0 085#03D7857C031B831C
(1611136642.998749) can0 128#00F1000000000000
(1611136642.998991) can0 350#0400000000000000
(1611136642.999230) can0 437#0F1C010000000081
(1611136642.999486) can0 453#0000000002E6D200
(1611136643.008741) can0 12D#8100000000000000
(1611136643.008892) can0 097#0170002F01750025
(1611136643.009209) can0 120#0175000000000000
(1611136643.016353) can0 090#08E5001380000000
(1611136643.016605) can0 4B0#0000000000000000
(1611136643.016846) can0 210#21E0F8001021E000
(1611136643.017085) can0 085#03D7857C031B831C
(1611136643.024676) can0 200#034502510340C000
(1611136643.024980) can0 12D#8100000000000000
(1611136643.025134) can0 097#0170002F01750025
(1611136643.025402) can0 120#0175000000000000
(1611136643.025647) can0 207#0000000000000000
(1611136643.036353) can0 090#08E5001380000000
(1611136643.036602) can0 4B0#0000000000000000
(1611136643.036843) can0 210#21E0F8001021E000
(1611136643.037082) can0 085#03D7857C031A831C
(1611136643.040711) can0 230#00BE760668000000
(1611136643.040958) can0 12D#8100000000000000
(1611136643.041197) can0 097#0170002F01750025
(1611136643.041436) can0 120#0175000000000000
(1611136643.043950) can0 353#03FE3A25148E1981
(1611136643.056343) can0 090#08E5001380000000
(1611136643.056593) can0 4B0#0000000000000000
(1611136643.056840) can0 12D#8100000000000000
(1611136643.057085) can0 097#0170002F01750025
(1611136643.057356) can0 120#0175000000000000
(1611136643.057504) can0 210#21E0F8001021E000
(1611136643.057787) can0 085#03D8857C031B831C
(1611136643.072724) can0 200#034502510340C000
(1611136643.072971) can0 207#0000000000000000
(1611136643.073216) can0 425#00FFFFFFFF028000
(1611136643.073463) can0 12D#8100000000000000
(1611136643.073702) can0 427#5193AD7CA0200500
(1611136643.073940) can0 44D#0040000032B047C7
(1611136643.074179) can0 097#0170002F01750025
(1611136643.074417) can0 120#0175000000000000
(1611136643.076400) can0 090#08E5001380000000
(1611136643.076651) can0 4B0#0000000000000000
(1611136643.076925) can0 210#21E0F8001021E000
(1611136643.077079) can0 085#03D8857C031B831C
(1611136643.080529) can0 340#001A000000000000
(1611136643.088793) can0 12D#8100000000000000
(1611136643.089040) can0 097#0170002F01750025
(1611136643.089280) can0 120#0175000000000000
(1611136643.093967) can0 353#03FE3A25148E1981
(1611136643.096355) can0 090#08E5001380000000
(1611136643.096603) can0 4B0#0000000000000000
(1611136643.096842) can0 210#21E0F8001021E000
(1611136643.097110) can0 085#03D7857C031A831C
(1611136643.098751) can0 128#00F1000000000000
(1611136643.098992) can0 350#0400000000000000
(1611136643.099231) can0 437#0F1C010000000081
(1611136643.099477) can0 453#0000000002E6D200
(1611136643.104640) can0 230#00BE760668000000
(1611136643.104881) can0 12D#8100000000000000
(1611136643.105073) can0 097#0170002F01750025
(1611136643.105392) can0 120#0175000000000000
(1611136643.116356) can0 090#08E5001380000000
(1611136643.116611) can0 4B0#0000000000000000
(1611136643.116851) can0 210#21E0F8001021E000
(1611136643.117089) can0 085#03D7857C031B831C
(1611136643.118753) can0 307#0000000000000000
(1611136643.120614) can0 200#034502510340C000
(1611136643.120855) can0 12D#8100000000000000
(1611136643.121094) can0 097#0170002F01750025
(1611136643.121332) can0 120#0175000000000000
(1611136643.121595) can0 207#0000000000000000
(1611136643.121836) can0 6F6#1516BC5F947A2D63
(1611136643.136380) can0 090#08E5001380000000
(1611136643.136641) can0 12D#8100000000000000
(1611136643.136791) can0 097#0170002F01750025
(1611136643.137105) can0 120#0175000000000000
(1611136643.137345) can0 4B0#0000000000000000
(1611136643.137586) can0 210#21E0F8001021E000
(1611136643.137825) can0 085#03D8857C031B831C
(1611136643.143963) can0 353#03FE3A25148E1981
(1611136643.152680) can0 12D#8100000000000000
(1611136643.152898) can0 097#0170002F01750025
(1611136643.153162) can0 120#0175000000000000
(1611136643.156354) can0 090#08E5001380000000
(1611136643.156629) can0 4B0#0000000000000000
(1611136643.156782) can0 210#21E0F8001021E000
(1611136643.157073) can0 085#03D8857C031B831C
(1611136643.168653) can0 200#034502510340C000
(1611136643.168907) can0 207#0000000000000000
(1611136643.169146) can0 230#00BE760668000000
(1611136643.169385) can0 425#00FFFFFFFF028000
(1611136643.169672) can0 12D#8100000000000000
(1611136643.169829) can0 427#5193AD7CA0200500
(1611136643.170112) can0 44D#0040000032B047C7
(1611136643.170349) can0 097#0170002F01750025
(1611136643.170586) can0 120#0175000000000000
(1611136643.176507) can0 0FC#0300000000000000
(1611136643.176759) can0 4B0#0000000000000000
(1611136643.176999) can0 210#21E0F8001021E000
(1611136643.177238) can0 085#03D7857C031A831C
(1611136643.177477) can0 090#08E5001380000000
(1611136643.180670) can0 340#001A000000000000
(1611136643.184689) can0 12D#8100000000000000
(1611136643.184971) can0 097#0170002F01750025
(1611136643.185123) can0 120#0175000000000000
(1611136643.193989) can0 353#03FE3A25148E1981
(1611136643.196352) can0 090#08E5001380000000
(1611136643.196603) can0 4B0#0000000000000000
(1611136643.196848) can0 210#21E0F8001021E000
(1611136643.196999) can0 085#03D7857C031A831C
(1611136643.198755) can0 128#00F1000000000000
(1611136643.198996) can0 350#0400000000000000
(1611136643.199265) can0 437#0F1C010000000081
(1611136643.199419) can0 453#0000000002E6D200
(1611136643.200737) can0 12D#8100000000000000
(1611136643.200978) can0 097#0170002F01750025
(1611136643.201223) can0 120#0175000000000000
(1611136643.216358) can0 090#08E5001380000000
(1611136643.216621) can0 4B0#0000000000000000
(1611136643.216869) can0 12D#8100000000000000
(1611136643.217019) can0 097#0170002F01750025
(1611136643.217337) can0 120#0175000000000000
(1611136643.217576) can0 200#034502510340C000
(1611136643.217815) can0 207#0000000000000000
(1611136643.218060) can0 210#21E0F8001021E000
(1611136643.218298) can0 085#03D8857C031B831C
(1611136643.232723) can0 230#00BE760668000000
(1611136643.232969) can0 12D#8100000000000000
(1611136643.233208) can0 097#0170002F01750025
(1611136643.233446) can0 120#0175000000000000
(1611136643.236396) can0 090#08E5001380000000
(1611136643.236646) can0 4B0#0000000000000000
(1611136643.236890) can0 210#21E0F8001021E000
(1611136643.237041) can0 085#03D8857C031A831C
(1611136643.243981) can0 353#03FE3A25148E1981
(1611136643.248780) can0 12D#8100000000000000
(1611136643.249029) can0 097#0170002F01750025
(1611136643.249274) can0 120#0175000000000000
(1611136643.256386) can0 090#08E5001380000000
(1611136643.256641) can0 4B0#0000000000000000
(1611136643.256880) can0 210#21E0F8001021E000
(1611136643.257030) can0 085#03D8857C031A831C
(1611136643.264743) can0 200#034502510340C000
(1611136643.265028) can0 207#0000000000000000
(1611136643.265178) can0 425#00FFFFFFFF028000
(1611136643.265488) can0 12D#8100000000000000
(1611136643.265728) can0 427#5193AD7CA0200500
(1611136643.265967) can0 44D#0040000032B047C7
(1611136643.266206) can0 097#0170002F01750025
(1611136643.266445) can0 120#0175000000000000
(1611136643.276405) can0 090#08E5001380000000
(1611136643.276651) can0 4B0#0000000000000000
(1611136643.276897) can0 210#21E0F8001021E000
(1611136643.277135) can0 085#03D8857C031B831C
(1611136643.280571) can0 340#001A000000000000
(1611136643.280818) can0 12D#8100000000000000
(1611136643.281064) can0 097#0170002F01750025
(1611136643.281303) can0 120#0175000000000000
(1611136643.294003) can0 353#03FE3A25148E1981
(1611136643.296383) can0 090#08E5001380000000
(1611136643.296639) can0 4B0#0000000000000000
(1611136643.296879) can0 12D#8100000000000000
(1611136643.297151) can0 097#0170002F01750025
(1611136643.297305) can0 120#0175000000000000
(1611136643.297596) can0 210#21E0F8001021E000
(1611136643.297836) can0 085#03D8857C031B831C
(1611136643.298097) can0 230#00BE760668000000
(1611136643.298780) can0 128#00F1000000000000
(1611136643.299019) can0 350#0400000000000000
(1611136643.299273) can0 437#0F1C010000000081
(1611136643.299505) can0 453#0000000002E6D200
(1611136643.312824) can0 200#034502510340C000
(1611136643.313079) can0 12D#8100000000000000
(1611136643.313318) can0 097#0170002F01750025
(1611136643.313557) can0 120#0175000000000000
(1611136643.313796) can0 207#0000000000000000
(1611136643.316381) can0 090#08E5001380000000
(1611136643.316630) can0 4B0#0000000000000000
(1611136643.316870) can0 210#21E0F8001021E000
(1611136643.317115) can0 085#03D7857C031B831C
(1611136643.328811) can0 623#3644127D00000000
(1611136643.329072) can0 12D#8100000000000000
(1611136643.329223) can0 097#0170002F01750025
(1611136643.329539) can0 120#0175000000000000
(1611136643.329779) can0 640#50600077400C8600
(1611136643.330017) can0 650#1142000000000000
(1611136643.336407) can0 090#08E5001380000000
(1611136643.336683) can0 4B0#0000000000000000
(1611136643.336838) can0 210#21E0F8001021E000
(1611136643.337122) can0 085#03D7857C031A831C
(1611136643.344002) can0 353#03FE3A25148E1981
(1611136643.344849) can0 12D#8100000000000000
(1611136643.345063) can0 097#0170002F01750025
(1611136643.345356) can0 120#0175000000000000
(1611136643.356396) can0 090#08E5001380000000
(1611136643.356651) can0 4B0#0000000000000000
(1611136643.356892) can0 210#21E0F8001021E000
(1611136643.357042) can0 085#03D7857C031A831C
(1611136643.360861) can0 200#034502510340C000
(1611136643.361109) can0 207#0000000000000000
(1611136643.361349) can0 230#00BE760668000000
(1611136643.361595) can0 425#00FFFFFFFF028000
(1611136643.361837) can0 12D#8100000000000000
(1611136643.362076) can0 427#5193AD7CA0200500
(1611136643.362315) can0 44D#0040000032B047C7
(1611136643.362552) can0 097#0170002F01750025
(1611136643.362808) can0 120#0175000000000000
(1611136643.362956) can0 6F6#1516BC5F947A2D63
(1611136643.376397) can0 0FC#0300000000000000
(1611136643.376652) can0 4B0#0000000000000000
(1611136643.376898) can0 12D#8100000000000000
(1611136643.377144) can0 097#0170002F01750025
(1611136643.377388) can0 120#0175000000000000
(1611136643.377635) can0 210#21E0F8001021E000
(1611136643.377785) can0 085#03D7857C031B831C
(1611136643.378114) can0 090#08E5001380000000
(1611136643.381263) can0 340#001A000000000000
(1611136643.392981) can0 12D#8100000000000000
(1611136643.393236) can0 097#0170002F01750025
(1611136643.393477) can0 120#0175000000000000
(1611136643.394016) can0 353#03FE3A25148E1981
(1611136643.396385) can0 090#08E5001380000000
(1611136643.396633) can0 4B0#0000000000000000
(1611136643.396872) can0 210#21E0F8001021E000
(1611136643.397111) can0 085#03D7857C031B831C
(1611136643.398758) can0 128#00F1000000000000
(1611136643.398999) can0 350#0400000000000000
(1611136643.399238) can0 403#8204832424000000
(1611136643.399477) can0 437#0F1C010000000081
(1611136643.399732) can0 453#0000000002E6D200
(1611136643.408940) can0 200#034502510340C000
(1611136643.409187) can0 12D#8100000000000000
(1611136643.409431) can0 097#0170002F01750025
(1611136643.409697) can0 120#0175000000000000
(1611136643.409851) can0 207#0000000000000000
(1611136643.416416) can0 090#08E5001380000000
(1611136643.416672) can0 4B0#0000000000000000
(1611136643.416912) can0 210#21E0F8001021E000
(1611136643.417062) can0 085#03D8857C031B831C
(1611136643.425114) can0 230#00BE760668000000
(1611136643.425361) can0 12D#8100000000000000
(1611136643.425601) can0 097#0170002F01750025
(1611136643.425842) can0 120#0175000000000000
(1611136643.436413) can0 090#08E5001380000000
(1611136643.436664) can0 4B0#0000000000000000
(1611136643.436905) can0 210#21E0F8001021E000
(1611136643.437144) can0 085#03D8857C031A831C
(1611136643.441150) can0 12D#8100000000000000
(1611136643.441392) can0 097#0170002F01750025
(1611136643.441633) can0 120#0175000000000000
(1611136643.444013) can0 353#03FE3A25148E1981
(1611136643.456377) can0 090#08E5001380000000
(1611136643.456634) can0 4B0#0000000000000000
(1611136643.456874) can0 210#21E0F8001021E000
(1611136643.457114) can0 085#03D8857C031B831C
(1611136643.457264) can0 200#034502510340C000
(1611136643.457588) can0 207#0000000000000000
(1611136643.457827) can0 425#00FFFFFFFF028000
(1611136643.458072) can0 12D#8100000000000000
(1611136643.458310) can0 427#5193AD7CA0200500
(1611136643.458575) can0 44D#0040000032B047C7
(1611136643.458729) can0 097#0170002F01750025
(1611136643.459035) can0 120#0175000000000000
(1611136643.473162) can0 12D#8100000000000000
(1611136643.473419) can0 097#0170002F01750025
(1611136643.473659) can0 120#0175000000000000
(1611136643.476367) can0 090#08E5001380000000
(1611136643.476621) can0 4B0#0000000000000000
(1611136643.476861) can0 210#21E0F8001021E000
(1611136643.477100) can0 085#03D7857C031B831C
(1611136643.481064) can0 340#001A000000000000
(1611136643.489188) can0 230#00BE760668000000
(1611136643.489441) can0 12D#8100000000000000
(1611136643.489681) can0 097#0170002F01750025
(1611136643.489921) can0 120#0175000000000000
(1611136643.494041) can0 353#03FE3A25148E1981
(1611136643.496492) can0 090#08E5001380000000
(1611136643.496747) can0 4B0#0000000000000000
(1611136643.496993) can0 210#21E0F8001021E000
(1611136643.497143) can0 085#03D7857C031B831C
(1611136643.498760) can0 128#00F1000000000000
(1611136643.499001) can0 350#0400000000000000
(1611136643.499241) can0 437#0F1C010000000081
(1611136643.499481) can0 453#0000000002E6D200
(1611136643.505232) can0 200#034502510340C000
(1611136643.505493) can0 12D#8100000000000000
(1611136643.505644) can0 097#0170002F01750025
(1611136643.505955) can0 120#0175000000000000
(1611136643.506194) can0 207#0000000000000000
(1611136643.516485) can0 090#08E5001380000000
(1611136643.516731) can0 4B0#0000000000000000
(1611136643.516970) can0 210#21E0F8001021E000
(1611136643.517240) can0 085#03D8857C031B831C
(1611136643.521211) can0 12D#8100000000000000
(1611136643.521453) can0 097#0170002F01750025
(1611136643.521697) can0 120#0175000000000000
(1611136643.536367) can0 090#08E5001380000000
(1611136643.536621) can0 4B0#0000000000000000
(1611136643.536893) can0 210#21E0F8001021E000
(1611136643.537047) can0 085#03D7857C031B831C
(1611136643.537333) can0 12D#8100000000000000
(1611136643.537572) can0 097#0170002F01750025
(1611136643.537812) can0 120#0175000000000000
(1611136643.544031) can0 353#03FE3A25148E1981
(1611136643.553243) can0 200#034502510340C000
(1611136643.553492) can0 207#0000000000000000
(1611136643.553733) can0 230#00BE760668000000
(1611136643.553972) can0 425#00FFFFFFFF028000
(1611136643.554259) can0 12D#8100000000000000
(1611136643.554413) can0 427#5193AD7CA0200500
(1611136643.554701) can0 44D#0040000032B047C7
(1611136643.554978) can0 097#0170002F01750025
(1611136643.555154) can0 120#0175000000000000
(1611136643.556522) can0 090#08E5001380000000
(1611136643.556777) can0 4B0#0000000000000000
(1611136643.557009) can0 210#21E0F8001021E000
(1611136643.557240) can0 085#03D7857C031B831C
(1611136643.569263) can0 12D#8100000000000000
(1611136643.569505) can0 097#0170002F01750025
(1611136643.569745) can0 120#0175000000000000
(1611136643.576373) can0 0FC#0300000000000000
(1611136643.576626) can0 4B0#0000000000000000
(1611136643.576866) can0 210#21E0F8001021E000
(1611136643.577106) can0 085#03D7857C031B831C
(1611136643.577344) can0 090#08E5001380000000
(1611136643.579285) can0 340#001A000000000000
(1611136643.585112) can0 12D#8100000000000000
(1611136643.585394) can0 097#0170002F01750025
(1611136643.585548) can0 120#0175000000000000
(1611136643.594048) can0 353#03FE3A25148E1981
(1611136643.596347) can0 090#08E5001380000000
(1611136643.596613) can0 4B0#0000000000000000
(1611136643.596880) can0 210#21E0F8001021E000
(1611136643.597033) can0 085#03D8857C031B831C
(1611136643.598758) can0 128#00F1000000000000
(1611136643.598999) can0 350#0400000000000000
(1611136643.599244) can0 437#0F1C010000000081
(1611136643.599483) can0 453#0000000002E6D200
(1611136643.601152) can0 200#034502510340C000
(1611136643.601393) can0 12D#8100000000000000
(1611136643.601632) can0 097#0170002F01750025
(1611136643.601879) can0 120#0175000000000000
(1611136643.602130) can0 207#0000000000000000
(1611136643.602367) can0 6F6#1516BC5F947A2D63
(1611136643.616347) can0 090#08E5001380000000
(1611136643.616610) can0 4B0#0000000000000000
(1611136643.616860) can0 210#21E0F8001021E000
(1611136643.617011) can0 085#03D7857C031A831C
(1611136643.617313) can0 12D#8100000000000000
(1611136643.617573) can0 097#0170002F01750025
(1611136643.617838) can0 120#0175000000000000
(1611136643.617994) can0 230#00BE760668000000
(1611136643.618757) can0 307#0000000000000000
(1611136643.633163) can0 12D#8100000000000000
(1611136643.633418) can0 097#0170002F01750025
(1611136643.633659) can0 120#0175000000000000
(1611136643.636350) can0 090#08E5001380000000
(1611136643.636598) can0 4B0#0000000000000000
(1611136643.636844) can0 210#21E0F8001021E000
(1611136643.637083) can0 085#03D7857C031A831C
(1611136643.644054) can0 353#03FE3A25148E1981
(1611136643.649170) can0 200#034502510340C000
(1611136643.649456) can0 207#0000000000000000
(1611136643.649610) can0 425#00FFFFFFFF028000
(1611136643.649914) can0 12D#8100000000000000
(1611136643.650154) can0 427#5193AD7CA0200500
(1611136643.650394) can0 44D#0040000032B047C7
(1611136643.650633) can0 097#0170002F01750025
(1611136643.650865) can0 120#0175000000000000
(1611136643.656419) can0 090#08E5001380000000
(1611136643.656673) can0 4B0#0000000000000000
(1611136643.656918) can0 210#21E0F8001021E000
(1611136643.657157) can0 085#03D7857C031B831C
(1611136643.665179) can0 12D#8100000000000000
(1611136643.665452) can0 097#0170002F01750025
(1611136643.665606) can0 120#0175000000000000
(1611136643.676367) can0 090#08E5001380000000
(1611136643.676622) can0 4B0#0000000000000000
(1611136643.676862) can0 210#21E0F8001021E000
(1611136643.677101) can0 085#03D7857C031A831C
(1611136643.680922) can0 340#001A000000000000
(1611136643.681187) can0 230#00BE760668000000
(1611136643.681428) can0 12D#8100000000000000
(1611136643.681669) can0 097#0170002F01750025
(1611136643.681908) can0 120#0175000000000000
(1611136643.694070) can0 353#03FE3A25148E1981
(1611136643.696350) can0 090#08E5001380000000
(1611136643.696605) can0 4B0#0000000000000000
(1611136643.696850) can0 210#21E0F8001021E000
(1611136643.697000) can0 085#03D7857C031A831C
(1611136643.697320) can0 12D#8100000000000000
(1611136643.697591) can0 097#0170002F01750025
(1611136643.697746) can0 120#0175000000000000
(1611136643.698039) can0 200#034502510340C000
(1611136643.698295) can0 207#0000000000000000
(1611136643.698762) can0 128#00F1000000000000
(1611136643.699017) can0 350#0400000000000000
(1611136643.699249) can0 437#0F1C010000000081
(1611136643.699487) can0 453#0000000002E6D200
(1611136643.713262) can0 12D#8100000000000000
(1611136643.713515) can0 097#0170002F01750025
(1611136643.713754) can0 120#0175000000000000
(1611136643.716351) can0 090#08E5001380000000
(1611136643.716606) can0 4B0#0000000000000000
(1611136643.716845) can0 210#21E0F8001021E000
(1611136643.716995) can0 085#03D8857C031B831C
(1611136643.729255) can0 12D#8100000000000000
(1611136643.729509) can0 097#0170002F01750025
(1611136643.729749) can0 120#0175000000000000
(1611136643.736370) can0 090#08E5001380000000
(1611136643.736625) can0 4B0#0000000000000000
(1611136643.736870) can0 210#21E0F8001021E000
(1611136643.737020) can0 085#03D8857C031B831C
(1611136643.744062) can0 353#03FE3A25148E1981
(1611136643.745242) can0 200#034502510340C000
(1611136643.745498) can0 207#0000000000000000
(1611136643.745739) can0 230#00BE760668000000
(1611136643.745979) can0 425#00FFFFFFFF028000
(1611136643.746217) can0 12D#8100000000000000
(1611136643.746462) can0 427#5193AD7CA0200500
(1611136643.746702) can0 44D#0040000032B047C7
(1611136643.746934) can0 097#0170002F01750025
(1611136643.747170) can0 120#0175000000000000
(1611136643.756494) can0 090#08E5001380000000
(1611136643.756739) can0 4B0#0000000000000000
(1611136643.756979) can0 210#21E0F8001021E000
(1611136643.757219) can0 085#03D7857C031B831C
(1611136643.761285) can0 12D#8100000000000000
(1611136643.761525) can0 097#0170002F01750025
(1611136643.761764) can0 120#0175000000000000
(1611136643.776397) can0 0FC#0300000000000000
(1611136643.776664) can0 4B0#0000000000000000
(1611136643.776814) can0 210#21E0F8001021E000
(1611136643.777115) can0 085#03D8857C031A831C
(1611136643.777362) can0 090#08E5001380000000
(1611136643.777606) can0 12D#8100000000000000
(1611136643.777845) can0 097#0170002F01750025
(1611136643.778084) can0 120#0175000000000000
(1611136643.779801) can0 340#001A000000000000
(1611136643.781818) can0 454#0000000000000000
(1611136643.793361) can0 200#034502510340C000
(1611136643.793609) can0 12D#8100000000000000
(1611136643.793849) can0 097#0170002F01750025
(1611136643.794099) can0 120#0175000000000000
(1611136643.794338) can0 207#0000000000000000
(1611136643.794571) can0 353#03FE3A25148E1981
(1611136643.796403) can0 090#08E5001380000000
(1611136643.796655) can0 4B0#0000000000000000
(1611136643.796920) can0 210#21E0F8001021E000
(1611136643.797071) can0 085#03D8857C031A831C
(1611136643.798766) can0 128#00F1000000000000
(1611136643.799045) can0 350#0400000000000000
(1611136643.799199) can0 437#0F1C010000000081
(1611136643.799498) can0 453#0000000002E6D200
(1611136643.809354) can0 230#00BE760668000000
(1611136643.809602) can0 12D#8100000000000000
(1611136643.809841) can0 097#0170002F01750025
(1611136643.810079) can0 120#0175000000000000
(1611136643.816398) can0 090#08E5001380000000
(1611136643.816647) can0 4B0#0000000000000000
(1611136643.816886) can0 210#21E0F8001021E000
(1611136643.817126) can0 085#03D7857C031B831C
(1611136643.825351) can0 12D#8100000000000000
(1611136643.825623) can0 097#0170002F01750025
(1611136643.825777) can0 120#0175000000000000
(1611136643.836370) can0 090#08E5001380000000
(1611136643.836621) can0 4B0#0000000000000000
(1611136643.836861) can0 210#21E0F8001021E000
(1611136643.837100) can0 085#03D7857C031B831C
(1611136643.841359) can0 200#034502510340C000
(1611136643.841600) can0 207#0000000000000000
(1611136643.841865) can0 425#00FFFFFFFF028000
(1611136643.842106) can0 12D#8100000000000000
(1611136643.842345) can0 427#5193AD7CA0200500
(1611136643.842584) can0 44D#0040000032B047C7
(1611136643.842829) can0 097#0170002F01750025
(1611136643.843061) can0 120#0175000000000000
(1611136643.843292) can0 6F6#1516BC5F947A2D63
(1611136643.844078) can0 353#03FE3A25148E1981
(1611136643.856376) can0 090#08E5001380000000
(1611136643.856634) can0 4B0#0000000000000000
(1611136643.856890) can0 210#21E0F8001021E000
(1611136643.857040) can0 085#03D8857C031B831C
(1611136643.857367) can0 12D#8100000000000000
(1611136643.857606) can0 097#0170002F01750025
(1611136643.857851) can0 120#0175000000000000
(1611136643.873382) can0 230#00BE760668000000
(1611136643.873637) can0 12D#8100000000000000
(1611136643.873877) can0 097#0170002F01750025
(1611136643.874116) can0 120#0175000000000000
(1611136643.876417) can0 090#08E5001380000000
(1611136643.876669) can0 4B0#0000000000000000
(1611136643.876909) can0 210#21E0F8001021E000
(1611136643.877147) can0 085#03D8857C031A831C
(1611136643.879935) can0 340#001A000000000000
(1611136643.889407) can0 200#034502510340C000
(1611136643.889663) can0 12D#8100000000000000
(1611136643.889813) can0 097#0170002F01750025
(1611136643.890131) can0 120#0175000000000000
(1611136643.890372) can0 207#0000000000000000
(1611136643.894117) can0 353#03FE3A25148E1981
(1611136643.896431) can0 090#08E5001380000000
(1611136643.896687) can0 4B0#0000000000000000
(1611136643.896927) can0 210#21E0F8001021E000
(1611136643.897077) can0 085#03D8857C031B831C
(1611136643.898767) can0 128#00F1000000000000
(1611136643.899008) can0 350#0400000000000000
(1611136643.899247) can0 403#8204822424000000
(1611136643.899486) can0 437#0F1C010000000081
(1611136643.899750) can0 453#0000000002E6D200
(1611136643.905668) can0 12D#8100000000000000
(1611136643.905947) can0 097#0170002F01750025
(1611136643.906101) can0 120#0175000000000000
(1611136643.916385) can0 090#08E5001380000000
(1611136643.916641) can0 4B0#0000000000000000
(1611136643.916880) can0 210#21E0F8001021E000
(1611136643.917125) can0 085#03D7857C031B831C
(1611136643.921639) can0 12D#8100000000000000
(1611136643.921879) can0 097#0170002F01750025
(1611136643.922118) can0 120#0175000000000000
(1611136643.936390) can0 090#08E5001380000000
(1611136643.936644) can0 4B0#0000000000000000
(1611136643.936883) can0 210#21E0F8001021E000
(1611136643.937122) can0 085#03D7857C031B831C
(1611136643.937602) can0 200#034502510340C000
(1611136643.937849) can0 207#0000000000000000
(1611136643.938087) can0 230#00BE760668000000
(1611136643.938345) can0 425#00FFFFFFFF028000
(1611136643.938583) can0 12D#8100000000000000
(1611136643.938816) can0 427#5193AD7CA0200500
(1611136643.939052) can0 44D#0040000032B047C7
(1611136643.939294) can0 097#0170002F01750025
(1611136643.939550) can0 120#0175000000000000
(1611136643.944105) can0 353#03FE3A25148E1981
(1611136643.953672) can0 12D#8100000000000000
(1611136643.953928) can0 097#0170002F01750025
(1611136643.954168) can0 120#0175000000000000
(1611136643.956364) can0 090#08E5001380000000
(1611136643.956618) can0 4B0#0000000000000000
(1611136643.956858) can0 210#21E0F8001021E000
(1611136643.957007) can0 085#03D8857C031A831C
(1611136643.969677) can0 12D#8100000000000000
(1611136643.969930) can0 097#0170002F01750025
(1611136643.970171) can0 120#0175000000000000
(1611136643.976398) can0 0FC#0300000000000000
(1611136643.976653) can0 4B0#0000000000000000
(1611136643.976893) can0 210#21E0F8001021E000
(1611136643.977132) can0 085#03D7857C031B831C
(1611136643.977376) can0 090#08E5001380000000
(1611136643.979879) can0 340#001A000000000000
(1611136643.985679) can0 200#034502510340C000
(1611136643.985934) can0 12D#8100000000000000
(1611136643.986085) can0 097#0170002F01750025
(1611136643.986402) can0 120#0175000000000000
(1611136643.986642) can0 207#0000000000000000
(1611136643.994114) can0 353#03FE3A25148E1981
(1611136643.996431) can0 090#08E5001380000000
(1611136643.996679) can0 4B0#0000000000000000
(1611136643.996918) can0 210#21E0F8001021E000
(1611136643.997157) can0 085#03D7857C031B831C
(1611136643.998768) can0 128#00F1000000000000
(1611136643.999009) can0 350#0400000000000000
(1611136643.999249) can0 437#0F1C010000000081
(1611136643.999510) can0 453#0000000002E6D200
(1611136644.001732) can0 230#00BE760668000000
(1611136644.001973) can0 12D#8100000000000000
(1611136644.002212) can0 097#0170002F01750025
(1611136644.002451) can0 120#0175000000000000
(1611136644.016413) can0 090#08E5001380000000
(1611136644.016659) can0 4B0#0000000000000000
(1611136644.016905) can0 210#21E0F8001021E000
(1611136644.017078) can0 085#03D7857C031B831C
(1611136644.017710) can0 12D#8100000000000000
(1611136644.017864) can0 097#0170002F01750025
(1611136644.018168) can0 120#0175000000000000
(1611136644.033721) can0 200#034502510340C000
(1611136644.033970) can0 207#0000000000000000
(1611136644.034216) can0 425#00FFFFFFFF028000
(1611136644.034461) can0 12D#8100000000000000
(1611136644.034699) can0 427#5193AD7CA0200500
(1611136644.034981) can0 44D#0040000032B047C7
(1611136644.035132) can0 097#0170002F01750025
(1611136644.035420) can0 120#0175000000000000
(1611136644.036533) can0 090#08E5001380000000
(1611136644.036774) can0 4B0#0000000000000000
(1611136644.037030) can0 210#21E0F8001021E000
(1611136644.037262) can0 085#03D8857C031B831C
(1611136644.044112) can0 353#03FE3A25148E1981
(1611136644.049784) can0 12D#8100000000000000
(1611136644.050046) can0 097#0170002F01750025
(1611136644.050197) can0 120#0175000000000000
(1611136644.056389) can0 090#08E5001380000000
(1611136644.056644) can0 4B0#0000000000000000
(1611136644.056884) can0 210#21E0F8001021E000
(1611136644.057124) can0 085#03D7857C031B831C
(1611136644.065593) can0 230#00BE760668000000
(1611136644.065844) can0 12D#8100000000000000
(1611136644.066084) can0 097#0170002F01750025
(1611136644.066323) can0 120#0175000000000000
(1611136644.076497) can0 090#08E5001380000000
(1611136644.076749) can0 4B0#0000000000000000
(1611136644.076990) can0 210#21E0F8001021E000
(1611136644.077229) can0 085#03D7857C031B831C
(1611136644.080429) can0 340#001A000000000000
(1611136644.081599) can0 200#034502510340C000
(1611136644.081841) can0 12D#8100000000000000
(1611136644.082081) can0 097#0170002F01750025
(1611136644.082327) can0 120#0175000000000000
(1611136644.082566) can0 207#0000000000000000
(1611136644.082804) can0 6F6#15EB41A26987D09E
(1611136644.094143) can0 353#03FE3A25148E1981
(1611136644.096394) can0 090#08E5001380000000
(1611136644.096642) can0 4B0#0000000000000000
(1611136644.096881) can0 210#21E0F8001021E000
(1611136644.097120) can0 085#03D8857C031B831C
(1611136644.097622) can0 12D#8100000000000000
(1611136644.097862) can0 097#0170002F01750025
(1611136644.098101) can0 120#0175000000000000
(1611136644.098769) can0 128#00F1000000000000
(1611136644.099025) can0 350#0400000000000000
(1611136644.099262) can0 437#0F1C010000000081
(1611136644.099494) can0 453#0000000002E6D200
(1611136644.113676) can0 12D#8100000000000000
(1611136644.113927) can0 097#0170002F01750025
(1611136644.114166) can0 120#0175000000000000
(1611136644.116356) can0 090#08E5001380000000
(1611136644.116602) can0 4B0#0000000000000000
(1611136644.116843) can0 210#21E0F8001021E000
(1611136644.117081) can0 085#03D8857C031B831C
(1611136644.118772) can0 307#0000000000000000
(1611136644.129660) can0 200#034502510340C000
(1611136644.129916) can0 207#0000000000000000
(1611136644.130154) can0 230#00BE760668000000
(1611136644.130394) can0 425#00FFFFFFFF028000
(1611136644.130639) can0 12D#8100000000000000
(1611136644.130877) can0 427#5193AD7CA0200500
(1611136644.131115) can0 44D#0040000032B047C7
(1611136644.131352) can0 097#0170002F01750025
(1611136644.131607) can0 120#0175000000000000
(1611136644.136549) can0 090#08E5001380000000
(1611136644.136789) can0 4B0#0000000000000000
(1611136644.137027) can0 210#21E0F8001021E000
(1611136644.137265) can0 085#03D7857C031A831C
(1611136644.144129) can0 353#03FE3A25148E1981
(1611136644.145706) can0 12D#8100000000000000
(1611136644.145946) can0 097#0170002F01750025
(1611136644.146186) can0 120#0175000000000000
(1611136644.156401) can0 090#08E5001380000000
(1611136644.156651) can0 4B0#0000000000000000
(1611136644.156890) can0 210#21E0F8001021E000
(1611136644.157129) can0 085#03D7857C031A831C
(1611136644.161700) can0 12D#8100000000000000
(1611136644.161962) can0 097#0170002F01750025
(1611136644.162116) can0 120#0175000000000000
(1611136644.176381) can0 0FC#0300000000000000
(1611136644.176655) can0 4B0#0000000000000000
(1611136644.176809) can0 210#21E0F8001021E000
(1611136644.177104) can0 085#03D8857C031B831C
(1611136644.177343) can0 090#08E5001380000000
(1611136644.177663) can0 200#034502510340C000
(1611136644.177904) can0 12D#8100000000000000
(1611136644.178135) can0 097#0170002F01750025
(1611136644.178391) can0 120#0175000000000000
(1611136644.178646) can0 207#0000000000000000
(1611136644.179337) can0 340#001A000000000000
(1611136644.193794) can0 230#00BE760668000000
(1611136644.194035) can0 12D#8100000000000000
(1611136644.194286) can0 097#0170002F01750025
(1611136644.194521) can0 120#0175000000000000
(1611136644.194758) can0 353#03FE3A25148E1981
(1611136644.196398) can0 090#08E5001380000000
(1611136644.196657) can0 4B0#0000000000000000
(1611136644.196808) can0 210#21E0F8001021E000
(1611136644.197108) can0 085#03D8857C031B831C
(1611136644.198772) can0 128#00F1000000000000
(1611136644.199011) can0 350#0400000000000000
(1611136644.199250) can0 437#0F1C010000000081
(1611136644.199513) can0 453#0000000002E6D200
(1611136644.209795) can0 12D#8100000000000000
(1611136644.210040) can0 097#0170002F01750025
(1611136644.210280) can0 120#0175000000000000
(1611136644.216378) can0 090#08E5001380000000
(1611136644.216632) can0 4B0#0000000000000000
(1611136644.216872) can0 210#21E0F8001021E000
(1611136644.217110) can0 085#03D7857C031B831C
(1611136644.225735) can0 200#034502510340C000
(1611136644.225983) can0 207#0000000000000000
(1611136644.226222) can0 425#00FFFFFFFF028000
(1611136644.226485) can0 12D#8100000000000000
(1611136644.226724) can0 427#5193AD7CA0200500
(1611136644.226988) can0 44D#0040000032B047C7
(1611136644.227144) can0 097#0170002F01750025
(1611136644.227433) can0 120#0175000000000000
(1611136644.236412) can0 090#08E5001380000000
(1611136644.236656) can0 4B0#0000000000000000
(1611136644.236895) can0 210#21E0F8001021E000
(1611136644.237134) can0 085#03D7857C031B831C
(1611136644.241788) can0 12D#8100000000000000
(1611136644.242029) can0 097#0170002F01750025
(1611136644.242268) can0 120#0175000000000000
(1611136644.244157) can0 353#03FE3A25148E1981
(1611136644.256371) can0 090#08E5001380000000
(1611136644.256627) can0 4B0#0000000000000000
(1611136644.256872) can0 210#21E0F8001021E000
(1611136644.257022) can0 085#03D7857C031B831C
(1611136644.257758) can0 230#00BE760668000000
(1611136644.257999) can0 12D#8100000000000000
(1611136644.258238) can0 097#0170002F01750025
(1611136644.258477) can0 120#0175000000000000
(1611136644.273804) can0 200#034502510340C000
(1611136644.274114) can0 12D#8100000000000000
(1611136644.276427) can0 097#0170002F01750025
(1611136644.276531) can0 120#0175000000000000
(1611136644.276829) can0 4B0#0000000000000000
(1611136644.276982) can0 210#21E0F8001021E000
(1611136644.277151) can0 085#03D7857C031B831C
(1611136644.279261) can0 340#001A000000000000
(1611136644.289844) can0 12D#8100000000000000
(1611136644.289998) can0 097#0170002F01750025
(1611136644.290319) can0 120#0175000000000000
(1611136644.294185) can0 353#03FE3A25148E1981
(1611136644.296394) can0 090#08E5001380000000
(1611136644.296659) can0 4B0#0000000000000000
(1611136644.296835) can0 210#21E0F8001021E000
(1611136644.297099) can0 085#03D8857C031B831C
(1611136644.298795) can0 128#00F1000000000000
(1611136644.299058) can0 350#0400000000000000
(1611136644.299231) can0 437#0F1C010000000081
(1611136644.299526) can0 453#0000000002E6D200
(1611136644.305907) can0 12D#8100000000000000
(1611136644.306085) can0 097#0170002F01750025
(1611136644.306386) can0 120#0175000000000000
(1611136644.316383) can0 090#08E5001380000000
(1611136644.316653) can0 4B0#0000000000000000
(1611136644.316828) can0 210#21E0F8001021E000
(1611136644.317092) can0 085#03D7857C031B831C
(1611136644.321858) can0 200#034502510340C000
(1611136644.322122) can0 207#0000000000000000
(1611136644.322296) can0 230#00BE760668000000
(1611136644.322598) can0 425#00FFFFFFFF028000
(1611136644.322770) can0 427#5193AD7CA0200500
(1611136644.323076) can0 4C0#1D04340000000000
(1611136644.323356) can0 12D#8100000000000000
(1611136644.323529) can0 44D#0040000032B047C7
(1611136644.323789) can0 097#0170002F01750025
(1611136644.324045) can0 120#0175000000000000
(1611136644.324220) can0 623#3644127D00000000
(1611136644.324523) can0 640#50600077400C8600
(1611136644.324696) can0 650#1036440106000000
(1611136644.325022) can0 6F6#15EB41A26987D09E
(1611136644.336385) can0 090#08E5001380000000
(1611136644.336541) can0 4B0#0000000000000000
(1611136644.336872) can0 210#21E0F8001021E000
(1611136644.337047) can0 085#03D7857C031A831C
(1611136644.337882) can0 12D#8100000000000000
(1611136644.338056) can0 097#0170002F01750025
(1611136644.338362) can0 120#0175000000000000
(1611136644.344181) can0 353#03FE3A25148E1981
(1611136644.353900) can0 12D#8100000000000000
(1611136644.354147) can0 097#0170002F01750025
(1611136644.354386) can0 120#0175000000000000
(1611136644.356363) can0 090#08E5001380000000
(1611136644.356610) can0 4B0#0000000000000000
(1611136644.356850) can0 210#21E0F8001021E000
(1611136644.357089) can0 085#03D7857C031B831C
(1611136644.369891) can0 200#034502510340C000
(1611136644.370142) can0 12D#8100000000000000
(1611136644.370382) can0 097#0170002F01750025
(1611136644.370622) can0 120#0175000000000000
(1611136644.370870) can0 207#0000000000000000
(1611136644.376408) can0 0FC#0300000000000000
(1611136644.376691) can0 4B0#0000000000000000
(1611136644.376866) can0 210#21E0F8001021E000
(1611136644.377152) can0 085#03D7857C031B831C
(1611136644.377325) can0 090#08E5001380000000
(1611136644.379440) can0 340#001A000000000000
(1611136644.387154) can0 230#00BE760668000000
(1611136644.387253) can0 12D#8100000000000000
(1611136644.387556) can0 120#0175000000000000
(1611136644.394183) can0 353#03FE3A25148E1981
(1611136644.396396) can0 090#08E5001380000000
(1611136644.396678) can0 4B0#0000000000000000
(1611136644.396832) can0 210#21E0F8001021E000
(1611136644.397137) can0 085#03D7857C031B831C
(1611136644.398801) can0 128#00F1000000000000
(1611136644.399042) can0 350#0400000000000000
(1611136644.399281) can0 403#8204822424000000
(1611136644.399526) can0 437#0F1C010000000081
(1611136644.399782) can0 453#0000000002E6D200
(1611136644.402177) can0 12D#8100000000000000
(1611136644.402416) can0 097#0170002F01750025
(1611136644.402660) can0 120#0175000000000000
(1611136644.416400) can0 090#08E5001380000000
(1611136644.416646) can0 4B0#0000000000000000
(1611136644.416892) can0 210#21E0F8001021E000
(1611136644.417137) can0 085#03D8857C031B831C
(1611136644.418115) can0 200#034502510340C000
(1611136644.418355) can0 207#0000000000000000
(1611136644.418644) can0 425#00FFFFFFFF028000
(1611136644.418798) can0 12D#8100000000000000
(1611136644.419093) can0 427#5193AD7CA0200500
(1611136644.419324) can0 44D#0040000032B047C7
(1611136644.419562) can0 097#0170002F01750025
(1611136644.419841) can0 120#0175000000000000
(1611136644.434140) can0 12D#8100000000000000
(1611136644.434391) can0 097#0170002F01750025
(1611136644.434631) can0 120#0175000000000000
(1611136644.436378) can0 090#08E5001380000000
(1611136644.436633) can0 4B0#0000000000000000
(1611136644.436873) can0 210#21E0F8001021E000
(1611136644.437023) can0 085#03D8857C031B831C
(1611136644.444176) can0 353#03FE3A25148E1981
(1611136644.450167) can0 230#00BE760668000000
(1611136644.450415) can0 12D#8100000000000000
(1611136644.450654) can0 097#0170002F01750025
(1611136644.450893) can0 120#0175000000000000
(1611136644.456413) can0 090#08E5001380000000
(1611136644.456667) can0 4B0#0000000000000000
(1611136644.456906) can0 210#21E0F8001021E000
(1611136644.457144) can0 085#03D7857C031B831C
(1611136644.466169) can0 200#034502510340C000
(1611136644.466424) can0 12D#8100000000000000
(1611136644.466574) can0 097#0170002F01750025
(1611136644.466916) can0 120#0175000000000000
(1611136644.467160) can0 207#0000000000000000
(1611136644.476437) can0 090#08E5001380000000
(1611136644.476685) can0 4B0#0000000000000000
(1611136644.476929) can0 210#21E0F8001021E000
(1611136644.477168) can0 085#03D7857C031B831C
(1611136644.479317) can0 340#001A000000000000
(1611136644.482204) can0 12D#8100000000000000
(1611136644.482452) can0 097#0170002F01750025
(1611136644.482691) can0 120#0175000000000000
(1611136644.494186) can0 353#03FE3A25148E1981
(1611136644.496386) can0 090#08E5001380000000
(1611136644.496649) can0 4B0#0000000000000000
(1611136644.496887) can0 210#21E0F8001021E000
(1611136644.497037) can0 085#03D8857C031A831C
(1611136644.498231) can0 12D#8100000000000000
(1611136644.498471) can0 097#0170002F01750025
(1611136644.498711) can0 120#0175000000000000
(1611136644.498955) can0 128#00F1000000000000
(1611136644.499217) can0 350#0400000000000000
(1611136644.499449) can0 437#0F1C010000000081
(1611136644.499707) can0 453#0000000002E6D200
(1611136644.514252) can0 200#034502510340C000
(1611136644.514407) can0 207#0000000000000000
(1611136644.514702) can0 230#00BE760668000000
(1611136644.514993) can0 425#00FFFFFFFF028000
(1611136644.515170) can0 12D#8100000000000000
(1611136644.515446) can0 427#5193AD7CA0200500
(1611136644.515629) can0 44D#0040000032B047C7
(1611136644.515905) can0 097#0170002F01750025
(1611136644.516143) can0 120#0175000000000000
(1611136644.516576) can0 090#08E5001380000000
(1611136644.516833) can0 4B0#0000000000000000
(1611136644.517071) can0 210#21E0F8001021E000
(1611136644.517310) can0 085#03D8857C031A831C
(1611136644.530305) can0 12D#8100000000000000
(1611136644.530479) can0 097#0170002F01750025
(1611136644.530738) can0 120#0175000000000000
(1611136644.536408) can0 090#08E5001380000000
(1611136644.536681) can0 4B0#0000000000000000
(1611136644.536835) can0 210#21E0F8001021E000
(1611136644.537150) can0 085#03D8857C031B831C
(1611136644.544205) can0 353#03FE3A25148E1981
(1611136644.546122) can0 12D#8100000000000000
(1611136644.546277) can0 097#0170002F01750025
(1611136644.546588) can0 120#0175000000000000
(1611136644.556396) can0 090#08E5001380000000
(1611136644.556634) can0 4B0#0000000000000000
(1611136644.556867) can0 210#21E0F8001021E000
(1611136644.557094) can0 085#03D7857C031A831C
(1611136644.562102) can0 200#034502510340C000
(1611136644.562338) can0 12D#8100000000000000
(1611136644.562564) can0 097#0170002F01750025
(1611136644.562809) can0 120#0175000000000000
(1611136644.563070) can0 207#0000000000000000
(1611136644.563296) can0 6F6#15EB41A26987D09E
(1611136644.576415) can0 0FC#0300000000000000
(1611136644.576651) can0 4B0#0000000000000000
(1611136644.576884) can0 210#21E0F8001021E000
(1611136644.577129) can0 085#03D7857C031A831C
(1611136644.577378) can0 090#08E5001380000000
(1611136644.578119) can0 230#00BE760668000000
(1611136644.578374) can0 12D#8100000000000000
(1611136644.578615) can0 097#0170002F01750025
(1611136644.578853) can0 120#0175000000000000
(1611136644.579092) can0 340#001A000000000000
(1611136644.594217) can0 12D#8100000000000000
(1611136644.594491) can0 097#0170002F01750025
(1611136644.594651) can0 120#0175000000000000
(1611136644.594961) can0 353#03FE3A25148E1981
(1611136644.596345) can0 090#08E5001380000000
(1611136644.596595) can0 4B0#0000000000000000
(1611136644.596834) can0 210#21E0F8001021E000
(1611136644.597067) can0 085#03D7857C031B831C
(1611136644.598755) can0 128#00F1000000000000
(1611136644.599002) can0 350#0400000000000000
(1611136644.599244) can0 437#0F1C010000000081
(1611136644.599486) can0 453#0000000002E6D200
(1611136644.610168) can0 200#034502510340C000
(1611136644.610419) can0 207#0000000000000000
(1611136644.610667) can0 425#00FFFFFFFF028000
(1611136644.610913) can0 12D#8100000000000000
(1611136644.611145) can0 427#5193AD7CA0200500
(1611136644.611385) can0 44D#0040000032B047C7
(1611136644.611621) can0 097#0170002F01750025
(1611136644.611867) can0 120#0175000000000000
(1611136644.616487) can0 090#08E5001380000000
(1611136644.616753) can0 4B0#0000000000000000
(1611136644.616986) can0 210#21E0F8001021E000
(1611136644.617212) can0 085#03D8857C031B831C
(1611136644.618780) can0 307#0000000000000000
(1611136644.626164) can0 12D#8100000000000000
(1611136644.626398) can0 097#0170002F01750025
(1611136644.626644) can0 120#0175000000000000
(1611136644.636396) can0 090#08E5001380000000
(1611136644.636664) can0 4B0#0000000000000000
(1611136644.636872) can0 210#21E0F8001021E000
(1611136644.637132) can0 085#03D8857C031B831C
(1611136644.642163) can0 230#00BE760668000000
(1611136644.642409) can0 12D#8100000000000000
(1611136644.642645) can0 097#0170002F01750025
(1611136644.642890) can0 120#0175000000000000
(1611136644.644183) can0 353#03FE3A25148E1981
(1611136644.656381) can0 090#08E5001380000000
(1611136644.656639) can0 4B0#0000000000000000
(1611136644.656859) can0 210#21E0F8001021E000
(1611136644.657092) can0 085#03D7857C031B831C
(1611136644.658191) can0 200#034502510340C000
(1611136644.658426) can0 12D#8100000000000000
(1611136644.658663) can0 097#0170002F01750025
(1611136644.658907) can0 120#0175000000000000
(1611136644.659170) can0 207#0000000000000000
(1611136644.674165) can0 12D#8100000000000000
(1611136644.674383) can0 097#0170002F01750025
(1611136644.674635) can0 120#0175000000000000
(1611136644.676395) can0 090#08E5001380000000
(1611136644.676634) can0 4B0#0000000000000000
(1611136644.676870) can0 210#21E0F8001021E000
(1611136644.677109) can0 085#03D7857C031B831C
(1611136644.679778) can0 340#001A000000000000
(1611136644.690228) can0 12D#8100000000000000
(1611136644.690447) can0 097#0170002F01750025
(1611136644.690691) can0 120#0175000000000000
(1611136644.694211) can0 353#03FE3A25148E1981
(1611136644.696401) can0 090#08E5001380000000
(1611136644.696638) can0 4B0#0000000000000000
(1611136644.696874) can0 210#21E0F8001021E000
(1611136644.697100) can0 085#03D8857C031B831C
(1611136644.698781) can0 128#00F1000000000000
(1611136644.699017) can0 350#0400000000000000
(1611136644.699262) can0 437#0F1C010000000081
(1611136644.699492) can0 453#0000000002E6D200
(1611136644.706285) can0 200#034502510340C000
(1611136644.706521) can0 207#0000000000000000
(1611136644.706766) can0 230#00BE760668000000
(1611136644.707005) can0 425#00FFFFFFFF028000
(1611136644.707250) can0 12D#8100000000000000
(1611136644.707481) can0 427#5193AD7CA0200500
(1611136644.707732) can0 44D#0040000032B047C7
(1611136644.707958) can0 097#0170002F01750025
(1611136644.708213) can0 120#0175000000000000
(1611136644.716538) can0 090#08E5001380000000
(1611136644.716773) can0 4B0#0000000000000000
(1611136644.717019) can0 210#21E0F8001021E000
(1611136644.717244) can0 085#03D8857C031A831C
(1611136644.722268) can0 12D#8100000000000000
(1611136644.722421) can0 097#0170002F01750025
(1611136644.722732) can0 120#0175000000000000
(1611136644.736402) can0 090#08E5001380000000
(1611136644.736638) can0 4B0#0000000000000000
(1611136644.736868) can0 210#21E0F8001021E000
(1611136644.737108) can0 085#03D8857C031A831C
(1611136644.738281) can0 12D#8100000000000000
(1611136644.738564) can0 097#0170002F01750025
(1611136644.738719) can0 120#0175000000000000
(1611136644.744223) can0 353#03FE3A25148E1981
(1611136644.754266) can0 200#034502510340C000
(1611136644.754515) can0 12D#8100000000000000
(1611136644.754754) can0 097#0170002F01750025
(1611136644.755032) can0 120#0175000000000000
(1611136644.755183) can0 207#0000000000000000
(1611136644.756410) can0 090#08E5001380000000
(1611136644.756657) can0 4B0#0000000000000000
(1611136644.756896) can0 210#21E0F8001021E000
(1611136644.757135) can0 085#03D7857C031B831C
(1611136644.770294) can0 230#00BE760668000000
(1611136644.770536) can0 12D#8100000000000000
(1611136644.770776) can0 097#0170002F01750025
(1611136644.771023) can0 120#0175000000000000
(1611136644.776514) can0 0FC#0300000000000000
(1611136644.776785) can0 4B0#0000000000000000
(1611136644.776939) can0 210#21E0F8001021E000
(1611136644.777256) can0 085#03D8857C031B831C
(1611136644.777413) can0 090#08E5001380000000
(1611136644.778654) can0 340#001A000000000000
(1611136644.780679) can0 454#0000000000000000
(1611136644.786340) can0 12D#8100000000000000
(1611136644.786587) can0 097#0170002F01750025
(1611136644.786827) can0 120#0175000000000000
(1611136644.794231) can0 353#03FE3A25148E1981
(1611136644.796421) can0 090#08E5001380000000
(1611136644.796661) can0 4B0#0000000000000000
(1611136644.796924) can0 210#21E0F8001021E000
(1611136644.797078) can0 085#03D8857C031B831C
(1611136644.798779) can0 128#00F1000000000000
(1611136644.799022) can0 350#0400000000000000
(1611136644.799312) can0 437#0F1C010000000081
(1611136644.799499) can0 453#0000000002E6D200
(1611136644.802380) can0 200#034502510340C000
(1611136644.802622) can0 207#0000000000000000
(1611136644.802885) can0 425#00FFFFFFFF028000
(1611136644.803124) can0 12D#8100000000000000
(1611136644.803363) can0 427#5193AD7CA0200500
(1611136644.803630) can0 44D#0040000032B047C7
(1611136644.803784) can0 097#0170002F01750025
(1611136644.804079) can0 120#0175000000000000
(1611136644.804317) can0 6F6#15EB41A26987D09E
(1611136644.816384) can0 090#08E5001380000000
(1611136644.816638) can0 4B0#0000000000000000
(1611136644.816874) can0 210#21E0F8001021E000
(1611136644.817116) can0 085#03D7857C031B831C
(1611136644.818381) can0 12D#8100000000000000
(1611136644.818622) can0 097#0170002F01750025
(1611136644.818861) can0 120#0175000000000000
(1611136644.834333) can0 230#00BE760668000000
(1611136644.834585) can0 12D#8100000000000000
(1611136644.834824) can0 097#0170002F01750025
(1611136644.835100) can0 120#0175000000000000
(1611136644.836392) can0 090#08E5001380000000
(1611136644.836633) can0 4B0#0000000000000000
(1611136644.836871) can0 210#21E0F8001021E000
(1611136644.837111) can0 085#03D7857C031B831C
(1611136644.844256) can0 353#03FE3A25148E1981
(1611136644.850401) can0 200#034502510340C000
(1611136644.850652) can0 12D#8100000000000000
(1611136644.850892) can0 097#0170002F01750025
(1611136644.851132) can0 120#0175000000000000
(1611136644.851371) can0 207#0000000000000000
(1611136644.856413) can0 090#08E5001380000000
(1611136644.856691) can0 4B0#0000000000000000
(1611136644.856845) can0 210#21E0F8001021E000
(1611136644.857158) can0 085#03D7857C031B831C
(1611136644.866607) can0 12D#8100000000000000
(1611136644.866881) can0 097#0170002F01750025
(1611136644.867035) can0 120#0175000000000000
(1611136644.876380) can0 090#08E5001380000000
(1611136644.876630) can0 4B0#0000000000000000
(1611136644.876894) can0 210#21E0F8001021E000
(1611136644.877049) can0 085#03D8857C031B831C
(1611136644.878645) can0 340#001A000000000000
(1611136644.882634) can0 12D#8100000000000000
(1611136644.882876) can0 097#0170002F01750025
(1611136644.883115) can0 120#0175000000000000
(1611136644.894251) can0 353#03FE3A25148E1981
(1611136644.896365) can0 090#08E5001380000000
(1611136644.896629) can0 4B0#0000000000000000
(1611136644.896859) can0 210#21E0F8001021E000
(1611136644.897092) can0 085#03D8857C031A831C
(1611136644.898641) can0 200#034502510340C000
(1611136644.898884) can0 128#00F1000000000000
(1611136644.899149) can0 207#0000000000000000
(1611136644.899396) can0 230#00BE760668000000
(1611136644.899641) can0 350#0400000000000000
(1611136644.899880) can0 403#8204822424000000
(1611136644.900121) can0 425#00FFFFFFFF028000
(1611136644.900376) can0 12D#8100000000000000
(1611136644.900614) can0 427#5193AD7CA0200500
(1611136644.900845) can0 437#0F1A010000000081
(1611136644.901076) can0 44D#0040000032B047C7
(1611136644.901313) can0 097#0170002F01750025
(1611136644.901568) can0 120#0175000000000000
(1611136644.901805) can0 453#0000000002E6D200
(1611136644.914635) can0 12D#8100000000000000
(1611136644.914881) can0 097#0170002F01750025
(1611136644.915146) can0 120#0175000000000000
(1611136644.916379) can0 090#08E5001380000000
(1611136644.916620) can0 4B0#0000000000000000
(1611136644.916884) can0 210#21E0F8001021E000
(1611136644.917038) can0 085#03D7857C031B831C
(1611136644.930667) can0 12D#8100000000000000
(1611136644.930914) can0 097#0170002F01750025
(1611136644.931153) can0 120#0175000000000000
(1611136644.936383) can0 090#08E5001380000000
(1611136644.936637) can0 4B0#0000000000000000
(1611136644.936901) can0 210#21E0F8001021E000
(1611136644.937055) can0 085#03D7857C031A831C
(1611136644.944254) can0 353#03FE3A25148E1981
(1611136644.946685) can0 200#034502510340C000
(1611136644.946915) can0 12D#8100000000000000
(1611136644.947152) can0 097#0170002F01750025
(1611136644.947397) can0 120#0175000000000000
(1611136644.947648) can0 207#0000000000000000
(1611136644.956400) can0 090#08E5001380000000
(1611136644.956636) can0 4B0#0000000000000000
(1611136644.956873) can0 210#21E0F8001021E000
(1611136644.957125) can0 085#03D8857C031B831C
(1611136644.962678) can0 230#00BE760668000000
(1611136644.962907) can0 12D#8100000000000000
(1611136644.963144) can0 097#0170002F01750025
(1611136644.963395) can0 120#0175000000000000
(1611136644.976386) can0 0FC#0300000000000000
(1611136644.976624) can0 4B0#0000000000000000
(1611136644.976862) can0 210#21E0F8001021E000
(1611136644.977093) can0 085#03D8857C031B831C
(1611136644.977329) can0 090#08E5001380000000
(1611136644.978714) can0 12D#8100000000000000
(1611136644.978942) can0 097#0170002F01750025
(1611136644.979179) can0 120#0175000000000000
(1611136644.979429) can0 340#001A000000000000
(1611136644.994283) can0 353#03FE3A25148E1981
(1611136644.994726) can0 200#034502510340C000
(1611136644.995001) can0 207#0000000000000000
(1611136644.995231) can0 425#00FFFFFFFF028000
(1611136644.995462) can0 12D#8100000000000000
(1611136644.995689) can0 427#5193AD7CA0200500
(1611136644.995933) can0 44D#0040000032B047C7
(1611136644.996169) can0 097#0170002F01750025
(1611136644.996420) can0 120#0175000000000000
(1611136644.996658) can0 090#08E5001380000000
(1611136644.996906) can0 4B0#0000000000000000
(1611136644.997142) can0 210#21E0F8001021E000
(1611136644.997378) can0 085#03D8857C031A831C
(1611136644.998786) can0 128#00F1000000000000
(1611136644.999015) can0 350#0400000000000000
(1611136644.999275) can0 437#0F1A010000000081
(1611136644.999503) can0 453#0000000002E6D200
(1611136645.010791) can0 12D#8100000000000000
(1611136645.011020) can0 097#0170002F01750025
(1611136645.011256) can0 120#0175000000000000
(1611136645.016382) can0 090#08E5001380000000
(1611136645.016620) can0 4B0#0000000000000000
(1611136645.016857) can0 210#21E0F8001021E000
(1611136645.017084) can0 085#03D8857C031B831C
(1611136645.026583) can0 230#00BE760668000000
(1611136645.026811) can0 12D#8100000000000000
(1611136645.027049) can0 097#0170002F01750025
(1611136645.027300) can0 120#0175000000000000
(1611136645.036405) can0 090#08E5001380000000
(1611136645.036634) can0 4B0#0000000000000000
(1611136645.036879) can0 210#21E0F8001021E000
(1611136645.037116) can0 085#03D7857C031B831C
(1611136645.042608) can0 200#034502510340C000
(1611136645.042836) can0 12D#8100000000000000
(1611136645.043073) can0 097#0170002F01750025
(1611136645.043322) can0 120#0175000000000000
(1611136645.043577) can0 207#0000000000000000
(1611136645.043807) can0 6F6#15D356B599D39D71
(1611136645.044270) can0 353#03FE3A25148E1981
(1611136645.056413) can0 090#08E5001380000000
(1611136645.056651) can0 4B0#0000000000000000
(1611136645.056888) can0 210#21E0F8001021E000
(1611136645.057116) can0 085#03D8857C031B831C
(1611136645.058653) can0 12D#8100000000000000
(1611136645.058884) can0 097#0170002F01750025
(1611136645.059121) can0 120#0175000000000000
(1611136645.074609) can0 12D#8100000000000000
(1611136645.074838) can0 097#0170002F01750025
(1611136645.075024) can0 120#0175000000000000
(1611136645.076396) can0 090#08E5001380000000
(1611136645.076634) can0 4B0#0000000000000000
(1611136645.076871) can0 210#21E0F8001021E000
(1611136645.077099) can0 085#03D8857C031A831C
(1611136645.078640) can0 340#001A000000000000
(1611136645.090635) can0 200#034502510340C000
(1611136645.090873) can0 207#0000000000000000
(1611136645.091117) can0 230#00BE760668000000
(1611136645.091368) can0 425#00FFFFFFFF028000
(1611136645.091605) can0 12D#8100000000000000
(1611136645.091841) can0 427#5193AD7CA0200500
(1611136645.092077) can0 44D#0040000032B047C7
(1611136645.092312) can0 097#0170002F01750025
(1611136645.092569) can0 120#0175000000000000
(1611136645.094286) can0 353#03FE3A25148E1981
(1611136645.096531) can0 090#08E5001380000000
(1611136645.096760) can0 4B0#0000000000000000
(1611136645.097005) can0 210#21E0F8001021E000
(1611136645.097232) can0 085#03D8857C031A831C
(1611136645.098786) can0 128#00F1000000000000
(1611136645.099024) can0 350#0400000000000000
(1611136645.099260) can0 437#0F1A010000000081
(1611136645.099511) can0 453#0000000002E6D200
(1611136645.106714) can0 12D#8100000000000000
(1611136645.106943) can0 097#0170002F01750025
(1611136645.107179) can0 120#0175000000000000
(1611136645.116394) can0 090#08E5001380000000
(1611136645.116624) can0 4B0#0000000000000000
(1611136645.116861) can0 210#21E0F8001021E000
(1611136645.117097) can0 085#03D7857C031A831C
(1611136645.118786) can0 307#0000000000000000
(1611136645.122703) can0 12D#8100000000000000
(1611136645.122931) can0 097#0170002F01750025
(1611136645.123168) can0 120#0175000000000000
(1611136645.136391) can0 090#08E5001380000000
(1611136645.136623) can0 4B0#0000000000000000
(1611136645.136867) can0 210#21E0F8001021E000
(1611136645.137103) can0 085#03D7857C031B831C
(1611136645.138695) can0 200#034502510340C000
(1611136645.138931) can0 12D#8100000000000000
(1611136645.139157) can0 097#0170002F01750025
(1611136645.139403) can0 120#0175000000000000
(1611136645.139659) can0 207#0000000000000000
(1611136645.144308) can0 353#03FE3A25148E1981
(1611136645.154694) can0 230#00BE760668000000
(1611136645.154969) can0 12D#8100000000000000
(1611136645.155113) can0 097#0170002F01750025
(1611136645.155405) can0 120#0175000000000000
(1611136645.156439) can0 090#08E5001380000000
(1611136645.156674) can0 4B0#0000000000000000
(1611136645.156919) can0 210#21E0F8001021E000
(1611136645.157144) can0 085#03D8857C031B831C
(1611136645.170747) can0 12D#8100000000000000
(1611136645.170981) can0 097#0170002F01750025
(1611136645.171213) can0 120#0175000000000000
(1611136645.176417) can0 0FC#0300000000000000
(1611136645.176663) can0 4B0#0000000000000000
(1611136645.176915) can0 210#21E0F8001021E000
(1611136645.177079) can0 085#03D8857C031B831C
(1611136645.177405) can0 090#08E5001380000000
(1611136645.177575) can0 340#001A000000000000
(1611136645.186748) can0 200#034502510340C000
(1611136645.186919) can0 207#0000000000000000
(1611136645.187249) can0 425#00FFFFFFFF028000
(1611136645.187419) can0 12D#8100000000000000
(1611136645.187718) can0 427#5193AD7CA0200500
(1611136645.187886) can0 44D#0040000032B047C7
(1611136645.188200) can0 097#0170002F01750025
(1611136645.188369) can0 120#0175000000000000
(1611136645.194318) can0 353#03FE3A25148E1981
(1611136645.196517) can0 090#08E5001380000000
(1611136645.196769) can0 4B0#0000000000000000
(1611136645.197021) can0 210#21E0F8001021E000
(1611136645.197173) can0 085#03D7857C031B831C
(1611136645.198786) can0 128#00F1000000000000
(1611136645.199030) can0 350#0400000000000000
(1611136645.199279) can0 437#0F1A010000000081
(1611136645.199527) can0 453#0000000002E6D200
(1611136645.202804) can0 12D#8100000000000000
(1611136645.203055) can0 097#0170002F01750025
(1611136645.203305) can0 120#0175000000000000
(1611136645.216405) can0 090#08E5001380000000
(1611136645.216689) can0 4B0#0000000000000000
(1611136645.216843) can0 210#21E0F8001021E000
(1611136645.217144) can0 085#03D7857C031B831C
(1611136645.218787) can0 230#00BE760668000000
(1611136645.219059) can0 12D#8100000000000000
(1611136645.219234) can0 097#0170002F01750025
(1611136645.219511) can0 120#0175000000000000
(1611136645.234747) can0 200#034502510340C000
(1611136645.235054) can0 12D#8100000000000000
(1611136645.235230) can0 097#0170002F01750025
(1611136645.235482) can0 120#0175000000000000
(1611136645.235732) can0 207#0000000000000000
(1611136645.236509) can0 090#08E5001380000000
(1611136645.236758) can0 4B0#0000000000000000
(1611136645.237007) can0 210#21E0F8001021E000
(1611136645.237246) can0 085#03D7857C031B831C
(1611136645.244305) can0 353#03FE3A25148E1981
(1611136645.250831) can0 12D#8100000000000000
(1611136645.251111) can0 097#0170002F01750025
(1611136645.251286) can0 120#0175000000000000
(1611136645.256403) can0 090#08E5001380000000
(1611136645.256660) can0 4B0#0000000000000000
(1611136645.256910) can0 210#21E0F8001021E000
(1611136645.257082) can0 085#03D8857C031B831C
(1611136645.266837) can0 12D#8100000000000000
(1611136645.267122) can0 097#0170002F01750025
(1611136645.267276) can0 120#0175000000000000
(1611136645.276430) can0 090#08E5001380000000
(1611136645.276718) can0 4B0#0000000000000000
(1611136645.276872) can0 210#21E0F8001021E000
(1611136645.277168) can0 085#03D8857C031B831C
(1611136645.279179) can0 340#001A000000000000
(1611136645.282848) can0 200#034502510340C000
(1611136645.283124) can0 207#0000000000000000
(1611136645.283294) can0 230#00BE760668000000
(1611136645.283586) can0 425#00FFFFFFFF028000
(1611136645.283761) can0 12D#8100000000000000
(1611136645.284064) can0 427#5193AD7CA0200500
(1611136645.284238) can0 44D#0040000032B047C7
(1611136645.284538) can0 097#0170002F01750025
(1611136645.284799) can0 120#0175000000000000
(1611136645.284985) can0 6F6#15D356B599D39D71
(1611136645.294333) can0 353#03FE3A25148E1981
(1611136645.296424) can0 090#08E5001380000000
(1611136645.296698) can0 4B0#0000000000000000
(1611136645.296852) can0 210#21E0F8001021E000
(1611136645.297166) can0 085#03D8857C031B831C
(1611136645.298789) can0 128#00F1000000000000
(1611136645.299061) can0 12D#8100000000000000
(1611136645.299215) can0 097#0170002F01750025
(1611136645.299541) can0 120#0175000000000000
(1611136645.299694) can0 350#0400000000000000
(1611136645.300030) can0 437#0F1A010000000081
(1611136645.300184) can0 453#0000000002E6D200
(1611136645.314858) can0 623#3644127D00000000
(1611136645.315045) can0 12D#8100000000000000
(1611136645.315340) can0 097#0170002F01750025
(1611136645.315591) can0 120#0175000000000000
(1611136645.315834) can0 640#50600077400C8600
(1611136645.316082) can0 650#1142000000000000
(1611136645.316557) can0 090#08E5001380000000
(1611136645.316806) can0 4B0#0000000000000000
(1611136645.317045) can0 210#21E0F8001021E000
(1611136645.317285) can0 085#03D8857C031B831C
(1611136645.330881) can0 200#034502510340C000
(1611136645.331129) can0 12D#8100000000000000
(1611136645.331374) can0 097#0170002F01750025
(1611136645.331621) can0 120#0175000000000000
(1611136645.331866) can0 207#0000000000000000
(1611136645.336446) can0 090#08E5001380000000
(1611136645.336728) can0 4B0#0000000000000000
(1611136645.336903) can0 210#21E0F8001021E000
(1611136645.337172) can0 085#03D8857C031B831C
(1611136645.344343) can0 353#03FE3A25148E1981
(1611136645.347114) can0 230#00BE760668000000
(1611136645.347362) can0 12D#8100000000000000
(1611136645.347608) can0 097#0170002F01750025
(1611136645.347872) can0 120#0175000000000000
(1611136645.356437) can0 090#08E5001380000000
(1611136645.356694) can0 4B0#0000000000000000
(1611136645.356964) can0 210#21E0F8001021E000
(1611136645.357118) can0 085#03D8857C031B831C
(1611136645.363118) can0 12D#8100000000000000
(1611136645.363366) can0 097#0170002F01750025
(1611136645.363606) can0 120#0175000000000000
(1611136645.376419) can0 0FC#0300000000000000
(1611136645.376697) can0 4B0#0000000000000000
(1611136645.376879) can0 210#21E0F8001021E000
(1611136645.377152) can0 085#03D8857C031B831C
(1611136645.377429) can0 090#08E5001380000000
(1611136645.378060) can0 340#001A000000000000
(1611136645.379110) can0 200#034502510340C000
(1611136645.379365) can0 207#0000000000000000
(1611136645.379625) can0 425#00FFFFFFFF028000
(1611136645.379905) can0 12D#8100000000000000
(1611136645.380054) can0 427#5193AD7CA0200500
(1611136645.380337) can0 44D#0040000032B047C7
(1611136645.380574) can0 097#0170002F01750025
(1611136645.380811) can0 120#0175000000000000
(1611136645.394329) can0 353#03FE3A25148E1981
(1611136645.395189) can0 12D#8100000000000000
(1611136645.395470) can0 097#0170002F01750025
(1611136645.395646) can0 120#0175000000000000
(1611136645.396408) can0 090#08E5001380000000
(1611136645.396692) can0 4B0#0000000000000000
(1611136645.396872) can0 210#21E0F8001021E000
(1611136645.397134) can0 085#03D7857C031A831C
(1611136645.398811) can0 128#00F1000000000000
(1611136645.399071) can0 350#0400000000000000
(1611136645.399245) can0 403#8204822424000000
(1611136645.399546) can0 437#0F1A010000000081
(1611136645.399720) can0 453#0000000002E6D200
(1611136645.411187) can0 230#00BE760668000000
(1611136645.411441) can0 12D#8100000000000000
(1611136645.411687) can0 097#0170002F01750025
(1611136645.411928) can0 120#0175000000000000
(1611136645.416520) can0 090#08E5001380000000
(1611136645.416776) can0 4B0#0000000000000000
(1611136645.417022) can0 210#21E0F8001021E000
(1611136645.417172) can0 085#03D7857C031A831C
(1611136645.427164) can0 200#034502510340C000
(1611136645.427420) can0 12D#8100000000000000
(1611136645.427663) can0 097#0170002F01750025
(1611136645.427931) can0 120#0175000000000000
(1611136645.428106) can0 207#0000000000000000
(1611136645.436450) can0 090#08E5001380000000
(1611136645.436706) can0 4B0#0000000000000000
(1611136645.436957) can0 210#21E0F8001021E000
(1611136645.437107) can0 085#03D7857C031B831C
(1611136645.443203) can0 12D#8100000000000000
(1611136645.443450) can0 097#0170002F01750025
(1611136645.443695) can0 120#0175000000000000
(1611136645.444359) can0 353#03FE3A25148E1981
(1611136645.456390) can0 090#08E6001380000000
(1611136645.456670) can0 4B0#0000000000000000
(1611136645.456845) can0 210#21E0F8001021E000
(1611136645.457131) can0 085#03D7857C031A831C
(1611136645.459242) can0 12D#8100000000000000
(1611136645.459419) can0 097#0170002F01750025
(1611136645.459723) can0 120#0175000000000000
(1611136645.475181) can0 200#034502510340C000
(1611136645.475446) can0 207#0000000000000000
(1611136645.475692) can0 230#00BE760668000000
(1611136645.475938) can0 425#00FFFFFFFF028000
(1611136645.476182) can0 12D#8100000000000000
(1611136645.476332) can0 427#5193AD7CA0200500
(1611136645.476639) can0 090#08E5001380000000
(1611136645.476892) can0 44D#0040000032B047C7
(1611136645.477042) can0 097#0170002F01750025
(1611136645.477360) can0 120#0175000000000000
(1611136645.477615) can0 4B0#0000000000000000
(1611136645.477852) can0 210#21E0F8001021E000
(1611136645.478089) can0 085#03D7857C031A831C
(1611136645.478325) can0 340#001A000000000000
(1611136645.491289) can0 12D#8100000000000000
(1611136645.491561) can0 097#0170002F01750025
(1611136645.491738) can0 120#0175000000000000
(1611136645.494366) can0 353#03FE3A25148E1981
(1611136645.496391) can0 090#08E5001380000000
(1611136645.496643) can0 4B0#0000000000000000
(1611136645.496893) can0 210#21E0F8001021E000
(1611136645.497043) can0 085#03D7857C031A831C
(1611136645.498824) can0 128#00F1000000000000
(1611136645.499075) can0 350#0400000000000000
(1611136645.499315) can0 437#0F1A010000000081
(1611136645.499560) can0 453#0000000002E6D200
(1611136645.507138) can0 12D#8100000000000000
(1611136645.507402) can0 097#0170002F01750025
(1611136645.507552) can0 120#0175000000000000
(1611136645.516379) can0 090#08E5001380000000
(1611136645.516658) can0 4B0#0000000000000000
(1611136645.516836) can0 210#21E0F8001021E000
(1611136645.517105) can0 085#03D7857C031A831C
(1611136645.523113) can0 200#034502510340C000
(1611136645.523385) can0 12D#8100000000000000
(1611136645.523560) can0 097#0170002F01750025
(1611136645.523845) can0 120#0175000000000000
(1611136645.524107) can0 207#0000000000000000
(1611136645.524282) can0 6F6#15D356B599D39D71
(1611136645.536382) can0 090#08E5001380000000
(1611136645.536638) can0 4B0#0000000000000000
(1611136645.536884) can0 210#21E0F8001021E000
(1611136645.537035) can0 085#03D7857C031B831C
(1611136645.539117) can0 230#00BE760668000000
(1611136645.539364) can0 12D#8100000000000000
(1611136645.539609) can0 097#0170002F01750025
(1611136645.539856) can0 120#0175000000000000
(1611136645.544354) can0 353#03FE3A25148E1981
(1611136645.555108) can0 12D#8100000000000000
(1611136645.555387) can0 097#0170002F01750025
(1611136645.555542) can0 120#0175000000000000
(1611136645.556397) can0 090#08E5001380000000
(1611136645.556644) can0 4B0#0000000000000000
(1611136645.556888) can0 210#21E0F8001021E000
(1611136645.557133) can0 085#03D7857C031B831C
(1611136645.571138) can0 200#034502510340C000
(1611136645.571399) can0 207#0000000000000000
(1611136645.571643) can0 425#00FFFFFFFF028000
(1611136645.571888) can0 12D#8100000000000000
(1611136645.572133) can0 427#5193AD7CA0200500
(1611136645.572283) can0 44D#0040000032B047C7
(1611136645.572592) can0 097#0170002F01750025
(1611136645.572837) can0 120#0175000000000000
(1611136645.576449) can0 0FC#0300000000000000
(1611136645.576718) can0 4B0#0000000000000000
(1611136645.576892) can0 210#21E0F8001021E000
(1611136645.577193) can0 085#03D7857C031B831C
(1611136645.577369) can0 090#08E5001380000000
(1611136645.578813) can0 340#001A000000000000
(1611136645.587169) can0 12D#8100000000000000
(1611136645.587420) can0 097#0170002F01750025
(1611136645.587665) can0 120#0175000000000000
(1611136645.594383) can0 353#03FE3A25148E1981
(1611136645.596386) can0 090#08E5001380000000
(1611136645.596641) can0 4B0#0000000000000000
(1611136645.596895) can0 210#21E0F8001021E000
(1611136645.597046) can0 085#03D7857C031B831C
(1611136645.598802) can0 128#00F1000000000000
(1611136645.599053) can0 350#0400000000000000
(1611136645.599298) can0 437#0F1A010000000081
(1611136645.599544) can0 453#0000000002E6D200
(1611136645.603212) can0 230#00BE760668000000
(1611136645.603459) can0 12D#8100000000000000
(1611136645.603705) can0 097#0170002F01750025
(1611136645.603951) can0 120#0175000000000000
(1611136645.616384) can0 090#08E5001380000000
(1611136645.616661) can0 4B0#0000000000000000
(1611136645.616817) can0 210#21E0F8001021E000
(1611136645.617105) can0 085#03D7857C031A831C
(1611136645.618796) can0 307#0000000000000000
(1611136645.619191) can0 200#034502510340C000
(1611136645.619438) can0 12D#8100000000000000
(1611136645.619683) can0 097#0170002F01750025
(1611136645.619928) can0 120#0175000000000000
(1611136645.620164) can0 207#0000000000000000
(1611136645.635194) can0 12D#8100000000000000
(1611136645.635473) can0 097#0170002F01750025
(1611136645.635648) can0 120#0175000000000000
(1611136645.636414) can0 090#08E5001380000000
(1611136645.636686) can0 4B0#0000000000000000
(1611136645.636860) can0 210#21E0F8001021E000
(1611136645.637138) can0 085#03D8857C031B831C
(1611136645.644392) can0 353#03FE3A25148E1981
(1611136645.651245) can0 12D#8100000000000000
(1611136645.651523) can0 097#0170002F01750025
(1611136645.651677) can0 120#0175000000000000
(1611136645.656395) can0 090#08E5001380000000
(1611136645.656655) can0 4B0#0000000000000000
(1611136645.656899) can0 210#21E0F8001021E000
(1611136645.657050) can0 085#03D8857C031B831C
(1611136645.667224) can0 200#034502510340C000
(1611136645.667504) can0 207#0000000000000000
(1611136645.667679) can0 230#00BE760668000000
(1611136645.667982) can0 425#00FFFFFFFF028000
(1611136645.668251) can0 12D#8100000000000000
(1611136645.668425) can0 427#5193AD7CA0200500
(1611136645.668702) can0 44D#0040000032B047C7
(1611136645.668879) can0 097#0170002F01750025
(1611136645.669181) can0 120#0175000000000000
(1611136645.676536) can0 090#08E5001380000000
(1611136645.676791) can0 4B0#0000000000000000
(1611136645.677032) can0 210#21E0F8001021E000
(1611136645.677273) can0 085#03D7857C031B831C
(1611136645.678012) can0 340#001A000000000000
(1611136645.683252) can0 12D#8100000000000000
(1611136645.683499) can0 097#0170002F01750025
(1611136645.683744) can0 120#0175000000000000
(1611136645.694381) can0 353#03FE3A25148E1981
(1611136645.696422) can0 090#08E5001380000000
(1611136645.696702) can0 4B0#0000000000000000
(1611136645.696878) can0 210#21E0F8001021E000
(1611136645.697167) can0 085#03D7857C031B831C
(1611136645.698816) can0 128#00F1000000000000
(1611136645.699089) can0 350#0400000000000000
(1611136645.699266) can0 12D#8100000000000000
(1611136645.699543) can0 097#0170002F01750025
(1611136645.699803) can0 120#0175000000000000
(1611136645.699977) can0 437#0F1A010000000081
(1611136645.700278) can0 453#0000000002E6D200
(1611136645.715279) can0 200#034502510340C000
(1611136645.715536) can0 12D#8100000000000000
(1611136645.715687) can0 097#0170002F01750025
(1611136645.716004) can0 120#0175000000000000
(1611136645.716250) can0 207#0000000000000000
(1611136645.716562) can0 090#08E5001380000000
(1611136645.716808) can0 4B0#0000000000000000
(1611136645.717053) can0 210#21E0F8001021E000
(1611136645.717295) can0 085#03D8857C031B831C
(1611136645.731289) can0 230#00BE760668000000
(1611136645.731559) can0 12D#8100000000000000
(1611136645.731737) can0 097#0170002F01750025
(1611136645.732037) can0 120#0175000000000000
(1611136645.736429) can0 090#08E5001380000000
(1611136645.736681) can0 4B0#0000000000000000
(1611136645.736927) can0 210#21E0F8001021E000
(1611136645.737077) can0 085#03D8857C031B831C
(1611136645.744410) can0 353#03FE3A25148E1981
(1611136645.747341) can0 12D#8100000000000000
(1611136645.747593) can0 097#0170002F01750025
(1611136645.747837) can0 120#0175000000000000
(1611136645.756409) can0 090#08E5001380000000
(1611136645.756691) can0 4B0#0000000000000000
(1611136645.756868) can0 210#21E0F8001021E000
(1611136645.757137) can0 085#03D8857C031B831C
(1611136645.763350) can0 200#034502510340C000
(1611136645.763617) can0 207#0000000000000000
(1611136645.763792) can0 425#00FFFFFFFF028000
(1611136645.764095) can0 12D#8100000000000000
(1611136645.764272) can0 427#5193AD7CA0200500
(1611136645.764571) can0 44D#0040000032B047C7
(1611136645.764744) can0 097#0170002F01750025
(1611136645.765057) can0 120#0175000000000000
(1611136645.765211) can0 6F6#15D356B599D39D71
(1611136645.777475) can0 0FC#0300000000000000
(1611136645.777579) can0 4B0#0000000000000000
(1611136645.777886) can0 340#001A000000000000
(1611136645.778838) can0 454#0000000000000000
(1611136645.779377) can0 12D#8100000000000000
(1611136645.779622) can0 097#0170002F01750025
(1611136645.779869) can0 120#0175000000000000
(1611136645.794397) can0 353#03FE3A25148E1981
(1611136645.795405) can0 230#00BE760668000000
(1611136645.795652) can0 12D#8100000000000000
(1611136645.795898) can0 097#0170002F01750025
(1611136645.796142) can0 120#0175000000000000
(1611136645.796528) can0 090#08E5001380000000
(1611136645.796774) can0 4B0#0000000000000000
(1611136645.797030) can0 210#21E0F8001021E000
(1611136645.797181) can0 085#03D7857C031A831C
(1611136645.798799) can0 128#00F1000000000000
(1611136645.799046) can0 350#0400000000000000
(1611136645.799290) can0 437#0F1A010000000081
(1611136645.799527) can0 453#0000000002E6D200
(1611136645.811428) can0 200#034502510340C000
(1611136645.811680) can0 12D#8100000000000000
(1611136645.811925) can0 097#0170002F01750025
(1611136645.812170) can0 120#0175000000000000
(1611136645.812415) can0 207#0000000000000000
(1611136645.816454) can0 090#08E5001380000000
(1611136645.816700) can0 4B0#0000000000000000
(1611136645.816985) can0 210#21E0F8001021E000
(1611136645.817155) can0 085#03D7857C031A831C
(1611136645.827629) can0 12D#8100000000000000
(1611136645.827786) can0 097#0170002F01750025
(1611136645.828103) can0 120#0175000000000000
(1611136645.836417) can0 090#08E5001380000000
(1611136645.836664) can0 4B0#0000000000000000
(1611136645.836910) can0 210#21E0F8001021E000
(1611136645.837155) can0 085#03D7857C031A831C
(1611136645.843637) can0 12D#8100000000000000
(1611136645.843885) can0 097#0170002F01750025
(1611136645.844129) can0 120#0175000000000000
(1611136645.844403) can0 353#03FE3A25148E1981
(1611136645.856443) can0 090#08E5001380000000
(1611136645.856596) can0 4B0#0000000000000000
(1611136645.856902) can0 210#21E0F8001021E000
(1611136645.857148) can0 085#03D7857C031B831C
(1611136645.859626) can0 200#034502510340C000
(1611136645.859872) can0 207#0000000000000000
(1611136645.860117) can0 230#00BE760668000000
(1611136645.860362) can0 425#00FFFFFFFF028000
(1611136645.860607) can0 12D#8100000000000000
(1611136645.860853) can0 427#5193AD7CA0200500
(1611136645.861090) can0 44D#0040000032B047C7
(1611136645.861326) can0 097#0170002F01750025
(1611136645.861569) can0 120#0175000000000000
(1611136645.875604) can0 12D#8100000000000000
(1611136645.875890) can0 097#0170002F01750025
(1611136645.876061) can0 120#0175000000000000
(1611136645.876457) can0 090#08E5001380000000
(1611136645.876728) can0 4B0#0000000000000000
(1611136645.876904) can0 210#21E0F8001021E000
(1611136645.877181) can0 085#03D8857C031B831C
(1611136645.878549) can0 340#001A000000000000
(1611136645.891687) can0 12D#8100000000000000
(1611136645.891940) can0 097#0170002F01750025
(1611136645.892180) can0 120#0175000000000000
(1611136645.894412) can0 353#03FE3A25148E1981
(1611136645.896418) can0 090#08E5001380000000
(1611136645.896682) can0 4B0#0000000000000000
(1611136645.896833) can0 210#21E0F8001021E000
(1611136645.897139) can0 085#03D8857C031A831C
(1611136645.898799) can0 128#00F1000000000000
(1611136645.899045) can0 350#0400000000000000
(1611136645.899291) can0 403#8204822424000000
(1611136645.899539) can0 437#0F1A010000000081
(1611136645.899784) can0 453#0000000002E6D200
(1611136645.907704) can0 200#034502510340C000
(1611136645.907978) can0 12D#8100000000000000
(1611136645.908129) can0 097#0170002F01750025
(1611136645.908440) can0 120#0175000000000000
(1611136645.908694) can0 207#0000000000000000
(1611136645.916534) can0 090#08E5001380000000
(1611136645.916828) can0 4B0#0000000000000000
(1611136645.916982) can0 210#21E0F8001021E000
(1611136645.917247) can0 085#03D7857C031A831C
(1611136645.923673) can0 230#00BE760668000000
(1611136645.923921) can0 12D#8100000000000000
(1611136645.924166) can0 097#0170002F01750025
(1611136645.924411) can0 120#0175000000000000
(1611136645.936432) can0 090#08E5001380000000
(1611136645.936716) can0 4B0#0000000000000000
(1611136645.936892) can0 210#21E0F8001021E000
(1611136645.937163) can0 085#03D8857C031A831C
(1611136645.939729) can0 12D#8100000000000000
(1611136645.939907) can0 097#0170002F01750025
(1611136645.940210) can0 120#0175000000000000
(1611136645.944441) can0 353#03FE3A25148E1981
(1611136645.955684) can0 200#034502510340C000
(1611136645.955937) can0 207#0000000000000000
(1611136645.956183) can0 425#00FFFFFFFF028000
(1611136645.956428) can0 12D#8100000000000000
(1611136645.956672) can0 090#08E5001380000000
(1611136645.956917) can0 427#5193AD7CA0200500
(1611136645.957066) can0 44D#0040000032B047C7
(1611136645.957375) can0 097#0170002F01750025
(1611136645.957613) can0 120#0175000000000000
(1611136645.957871) can0 4B0#0000000000000000
(1611136645.958108) can0 210#21E0F8001021E000
(1611136645.958345) can0 085#03D8857C031A831C
(1611136645.971759) can0 12D#8100000000000000
(1611136645.971913) can0 097#0170002F01750025
(1611136645.972238) can0 120#0175000000000000
(1611136645.976441) can0 0FC#0300000000000000
